 (1548862268.932112)  can0  073   [8]  05 CC 00 00 00 2D 01 31 :: Unknown frame id 115 (0x73)
 (1548862268.936156)  can0  2B0   [8]  50 00 00 07 8A 00 00 00 :: STEERING_ANGLE(STEERING_WHEEL_ANGLE: 8.0 degrees)
 (1548862268.937789)  can0  220   [8]  EB 03 05 04 00 00 41 10 :: BRAKE_PRESSURE(BRAKE_PRESSURE: 0.0 bar)
 (1548862268.938806)  can0  4B0   [8]  00 00 00 00 00 00 00 00 :: WHEEL_SPEED(LEFT_FRONT: 0.0 kph, RIGHT_FRONT: 0.0 kph, LEFT_REAR: 0.0 kph, RIGHT_REAR: 0.0 kph)
 (1548862268.939808)  can0  083   [8]  05 CC 00 00 00 53 01 31 :: Unknown frame id 131 (0x83)
 (1548862268.942474)  can0  093   [8]  05 CC 00 00 00 0D 01 31 :: Unknown frame id 147 (0x93)
 (1548862268.943766)  can0  0B9   [8]  00 04 00 00 00 00 00 00 :: Unknown frame id 185 (0xb9)
 (1548862268.945969)  can0  2B0   [8]  4E 00 00 07 6B 00 00 00 :: STEERING_ANGLE(STEERING_WHEEL_ANGLE: 7.800000000000001 degrees)
 (1548862268.947891)  can0  220   [8]  EB 03 05 04 00 00 3E 10 :: BRAKE_PRESSURE(BRAKE_PRESSURE: 0.0 bar)
 (1548862268.952115)  can0  073   [8]  05 CC 00 00 00 04 04 01 :: Unknown frame id 115 (0x73)
 (1548862268.955985)  can0  2B0   [8]  4D 00 00 07 2C 00 00 00 :: STEERING_ANGLE(STEERING_WHEEL_ANGLE: 7.7 degrees)
 (1548862268.957656)  can0  220   [8]  E9 03 04 04 00 00 3B 10 :: BRAKE_PRESSURE(BRAKE_PRESSURE: 0.0 bar)
 (1548862268.958662)  can0  4B0   [8]  00 00 00 00 00 00 00 00 :: WHEEL_SPEED(LEFT_FRONT: 0.0 kph, RIGHT_FRONT: 0.0 kph, LEFT_REAR: 0.0 kph, RIGHT_REAR: 0.0 kph)
 (1548862268.959679)  can0  083   [8]  05 CC 00 00 00 9F 0A DC :: Unknown frame id 131 (0x83)
 (1548862268.962467)  can0  093   [8]  05 CC 00 00 00 EF 61 64 :: Unknown frame id 147 (0x93)
 (1548862268.963832)  can0  0B9   [8]  00 04 00 00 00 00 00 00 :: Unknown frame id 185 (0xb9)
 (1548862268.966030)  can0  2B0   [8]  4D 00 00 07 3D 00 00 00 :: STEERING_ANGLE(STEERING_WHEEL_ANGLE: 7.7 degrees)
 (1548862268.968050)  can0  220   [8]  E9 03 03 04 00 00 39 10 :: BRAKE_PRESSURE(BRAKE_PRESSURE: 0.0 bar)
 (1548862268.972103)  can0  073   [8]  05 CC 00 00 00 2D 01 31 :: Unknown frame id 115 (0x73)
 (1548862268.975946)  can0  2B0   [8]  50 00 00 07 CE 00 00 00 :: STEERING_ANGLE(STEERING_WHEEL_ANGLE: 8.0 degrees)
 (1548862268.977793)  can0  220   [8]  E8 03 04 04 00 00 36 10 :: BRAKE_PRESSURE(BRAKE_PRESSURE: 0.0 bar)
 (1548862268.978820)  can0  4B0   [8]  00 00 00 00 00 00 00 00 :: WHEEL_SPEED(LEFT_FRONT: 0.0 kph, RIGHT_FRONT: 0.0 kph, LEFT_REAR: 0.0 kph, RIGHT_REAR: 0.0 kph)
 (1548862268.979820)  can0  083   [8]  05 CC 00 00 00 53 01 31 :: Unknown frame id 131 (0x83)
 (1548862268.982451)  can0  093   [8]  05 CC 00 00 00 0D 01 31 :: Unknown frame id 147 (0x93)
 (1548862268.983992)  can0  0B9   [8]  00 04 00 00 00 00 00 00 :: Unknown frame id 185 (0xb9)
 (1548862268.986412)  can0  2B0   [8]  4D 00 00 07 1F 00 00 00 :: STEERING_ANGLE(STEERING_WHEEL_ANGLE: 7.7 degrees)
 (1548862268.988091)  can0  220   [8]  E8 03 05 04 00 00 36 10 :: BRAKE_PRESSURE(BRAKE_PRESSURE: 0.0 bar)
 (1548862268.992092)  can0  073   [8]  05 CC 00 00 00 2D 01 31 :: Unknown frame id 115 (0x73)
 (1548862268.996451)  can0  2B0   [8]  4D 00 00 07 E0 00 00 00 :: STEERING_ANGLE(STEERING_WHEEL_ANGLE: 7.7 degrees)
 (1548862268.997842)  can0  220   [8]  E8 03 05 04 00 00 39 10 :: BRAKE_PRESSURE(BRAKE_PRESSURE: 0.0 bar)
 (1548862268.998866)  can0  4B0   [8]  00 00 00 00 00 00 00 00 :: WHEEL_SPEED(LEFT_FRONT: 0.0 kph, RIGHT_FRONT: 0.0 kph, LEFT_REAR: 0.0 kph, RIGHT_REAR: 0.0 kph)
 (1548862268.999866)  can0  083   [8]  05 CC 00 00 00 53 01 31 :: Unknown frame id 131 (0x83)
 (1548862269.002449)  can0  093   [8]  05 CC 00 00 00 08 9F 0A :: Unknown frame id 147 (0x93)
 (1548862269.004042)  can0  0B9   [8]  00 04 00 00 00 00 00 00 :: Unknown frame id 185 (0xb9)
 (1548862269.006018)  can0  2B0   [8]  4D 00 00 07 F1 00 00 00 :: STEERING_ANGLE(STEERING_WHEEL_ANGLE: 7.7 degrees)
 (1548862269.008041)  can0  220   [8]  E8 03 06 04 00 00 3B 10 :: BRAKE_PRESSURE(BRAKE_PRESSURE: 0.0 bar)
 (1548862269.012071)  can0  073   [8]  05 CC 00 00 00 2D 01 31 :: Unknown frame id 115 (0x73)
 (1548862269.015894)  can0  2B0   [8]  4E 00 00 07 F2 00 00 00 :: STEERING_ANGLE(STEERING_WHEEL_ANGLE: 7.800000000000001 degrees)
 (1548862269.017695)  can0  220   [8]  E8 03 04 04 00 00 3B 10 :: BRAKE_PRESSURE(BRAKE_PRESSURE: 0.0 bar)
 (1548862269.018716)  can0  4B0   [8]  00 00 00 00 00 00 00 00 :: WHEEL_SPEED(LEFT_FRONT: 0.0 kph, RIGHT_FRONT: 0.0 kph, LEFT_REAR: 0.0 kph, RIGHT_REAR: 0.0 kph)
 (1548862269.019716)  can0  083   [8]  05 CC 00 00 00 00 00 00 :: Unknown frame id 131 (0x83)
 (1548862269.022451)  can0  093   [8]  05 CC 00 00 00 0D 01 31 :: Unknown frame id 147 (0x93)
 (1548862269.024117)  can0  0B9   [8]  00 04 00 00 00 00 00 00 :: Unknown frame id 185 (0xb9)
 (1548862269.026091)  can0  2B0   [8]  4D 00 00 07 D3 00 00 00 :: STEERING_ANGLE(STEERING_WHEEL_ANGLE: 7.7 degrees)
 (1548862269.027893)  can0  220   [8]  E8 03 02 04 00 00 3B 10 :: BRAKE_PRESSURE(BRAKE_PRESSURE: 0.0 bar)
 (1548862269.032093)  can0  073   [8]  05 CC 00 00 00 0B 8A 00 :: Unknown frame id 115 (0x73)
 (1548862269.035996)  can0  2B0   [8]  4F 00 00 07 84 00 00 00 :: STEERING_ANGLE(STEERING_WHEEL_ANGLE: 7.9 degrees)
 (1548862269.037670)  can0  220   [8]  E8 03 04 04 00 00 3B 10 :: BRAKE_PRESSURE(BRAKE_PRESSURE: 0.0 bar)
 (1548862269.038641)  can0  4B0   [8]  00 00 00 00 00 00 00 00 :: WHEEL_SPEED(LEFT_FRONT: 0.0 kph, RIGHT_FRONT: 0.0 kph, LEFT_REAR: 0.0 kph, RIGHT_REAR: 0.0 kph)
 (1548862269.039666)  can0  083   [8]  05 CC 00 00 00 53 01 31 :: Unknown frame id 131 (0x83)
 (1548862269.042449)  can0  093   [8]  05 CC 00 00 00 0D 01 31 :: Unknown frame id 147 (0x93)
 (1548862269.044267)  can0  0B9   [8]  00 04 00 00 00 00 00 00 :: Unknown frame id 185 (0xb9)
 (1548862269.046041)  can0  2B0   [8]  4E 00 00 07 85 00 00 00 :: STEERING_ANGLE(STEERING_WHEEL_ANGLE: 7.800000000000001 degrees)
 (1548862269.047917)  can0  220   [8]  E8 03 05 04 00 00 39 10 :: BRAKE_PRESSURE(BRAKE_PRESSURE: 0.0 bar)
 (1548862269.052097)  can0  073   [8]  05 CC 00 00 00 2D 01 31 :: Unknown frame id 115 (0x73)
 (1548862269.056020)  can0  2B0   [8]  4E 00 00 07 B6 00 00 00 :: STEERING_ANGLE(STEERING_WHEEL_ANGLE: 7.800000000000001 degrees)
 (1548862269.057792)  can0  220   [8]  E9 03 06 04 00 00 36 10 :: BRAKE_PRESSURE(BRAKE_PRESSURE: 0.0 bar)
 (1548862269.058791)  can0  4B0   [8]  00 00 00 00 00 00 00 00 :: WHEEL_SPEED(LEFT_FRONT: 0.0 kph, RIGHT_FRONT: 0.0 kph, LEFT_REAR: 0.0 kph, RIGHT_REAR: 0.0 kph)
 (1548862269.059818)  can0  083   [8]  05 CC 00 00 00 53 01 31 :: Unknown frame id 131 (0x83)
 (1548862269.062413)  can0  093   [8]  05 CC 00 00 00 23 08 9F :: Unknown frame id 147 (0x93)
 (1548862269.064413)  can0  0B9   [8]  00 04 00 00 00 00 00 00 :: Unknown frame id 185 (0xb9)
 (1548862269.065967)  can0  2B0   [8]  50 00 00 07 57 00 00 00 :: STEERING_ANGLE(STEERING_WHEEL_ANGLE: 8.0 degrees)
 (1548862269.068069)  can0  220   [8]  EA 03 06 04 00 00 35 10 :: BRAKE_PRESSURE(BRAKE_PRESSURE: 0.0 bar)
 (1548862269.072101)  can0  073   [8]  05 CC 00 00 00 2D 01 31 :: Unknown frame id 115 (0x73)
 (1548862269.076171)  can0  2B0   [8]  4F 00 00 07 48 00 00 00 :: STEERING_ANGLE(STEERING_WHEEL_ANGLE: 7.9 degrees)
 (1548862269.077842)  can0  220   [8]  EB 03 07 04 00 00 38 10 :: BRAKE_PRESSURE(BRAKE_PRESSURE: 0.0 bar)
 (1548862269.078841)  can0  4B0   [8]  00 00 00 00 00 00 00 00 :: WHEEL_SPEED(LEFT_FRONT: 0.0 kph, RIGHT_FRONT: 0.0 kph, LEFT_REAR: 0.0 kph, RIGHT_REAR: 0.0 kph)
 (1548862269.079866)  can0  083   [8]  05 CC 00 00 00 01 31 08 :: Unknown frame id 131 (0x83)
 (1548862269.082392)  can0  093   [8]  05 CC 00 00 00 0D 01 31 :: Unknown frame id 147 (0x93)
 (1548862269.084468)  can0  0B9   [8]  00 04 00 00 00 00 00 00 :: Unknown frame id 185 (0xb9)
 (1548862269.085992)  can0  2B0   [8]  4D 00 00 07 79 00 00 00 :: STEERING_ANGLE(STEERING_WHEEL_ANGLE: 7.7 degrees)
 (1548862269.088092)  can0  220   [8]  ED 03 06 04 00 00 3A 10 :: BRAKE_PRESSURE(BRAKE_PRESSURE: 0.0 bar)
 (1548862269.092069)  can0  073   [8]  05 CC 00 00 00 2D 01 31 :: Unknown frame id 115 (0x73)
 (1548862269.096413)  can0  2B0   [8]  50 00 00 07 8A 00 00 00 :: STEERING_ANGLE(STEERING_WHEEL_ANGLE: 8.0 degrees)
 (1548862269.097892)  can0  220   [8]  EC 03 04 04 00 00 3D 10 :: BRAKE_PRESSURE(BRAKE_PRESSURE: 0.0 bar)
 (1548862269.098892)  can0  4B0   [8]  00 00 00 00 00 00 00 00 :: WHEEL_SPEED(LEFT_FRONT: 0.0 kph, RIGHT_FRONT: 0.0 kph, LEFT_REAR: 0.0 kph, RIGHT_REAR: 0.0 kph)
 (1548862269.099892)  can0  083   [8]  05 CC 00 00 00 53 01 31 :: Unknown frame id 131 (0x83)
 (1548862269.102450)  can0  093   [8]  05 CC 00 00 00 0D 01 31 :: Unknown frame id 147 (0x93)
 (1548862269.104517)  can0  0B9   [8]  00 04 00 00 00 00 00 00 :: Unknown frame id 185 (0xb9)
 (1548862269.106069)  can0  2B0   [8]  4D 00 00 07 5B 00 00 00 :: STEERING_ANGLE(STEERING_WHEEL_ANGLE: 7.7 degrees)
 (1548862269.107992)  can0  220   [8]  EB 03 04 04 00 00 40 10 :: BRAKE_PRESSURE(BRAKE_PRESSURE: 0.0 bar)
 (1548862269.112042)  can0  073   [8]  05 CC 00 00 00 2D 01 31 :: Unknown frame id 115 (0x73)
 (1548862269.116070)  can0  2B0   [8]  4D 00 00 07 2C 00 00 00 :: STEERING_ANGLE(STEERING_WHEEL_ANGLE: 7.7 degrees)
 (1548862269.117742)  can0  220   [8]  E9 03 04 04 00 00 43 10 :: BRAKE_PRESSURE(BRAKE_PRESSURE: 0.0 bar)
 (1548862269.118742)  can0  4B0   [8]  00 00 00 00 00 00 00 00 :: WHEEL_SPEED(LEFT_FRONT: 0.0 kph, RIGHT_FRONT: 0.0 kph, LEFT_REAR: 0.0 kph, RIGHT_REAR: 0.0 kph)
 (1548862269.119742)  can0  083   [8]  05 CC 00 00 00 53 01 31 :: Unknown frame id 131 (0x83)
 (1548862269.122392)  can0  093   [8]  05 CC 00 00 00 0D 01 31 :: Unknown frame id 147 (0x93)
 (1548862269.124593)  can0  0B9   [8]  00 04 00 00 00 00 00 00 :: Unknown frame id 185 (0xb9)
 (1548862269.125893)  can0  2B0   [8]  4D 00 00 07 3D 00 00 00 :: STEERING_ANGLE(STEERING_WHEEL_ANGLE: 7.7 degrees)
 (1548862269.127918)  can0  220   [8]  E8 03 05 04 00 00 46 10 :: BRAKE_PRESSURE(BRAKE_PRESSURE: 0.0 bar)
 (1548862269.132093)  can0  073   [8]  05 CC 00 00 00 2D 01 31 :: Unknown frame id 115 (0x73)
 (1548862269.136018)  can0  2B0   [8]  4D 00 00 07 0E 00 00 00 :: STEERING_ANGLE(STEERING_WHEEL_ANGLE: 7.7 degrees)
 (1548862269.137793)  can0  220   [8]  E9 03 05 04 00 00 49 10 :: BRAKE_PRESSURE(BRAKE_PRESSURE: 0.0 bar)
 (1548862269.138793)  can0  4B0   [8]  00 00 00 00 00 00 00 00 :: WHEEL_SPEED(LEFT_FRONT: 0.0 kph, RIGHT_FRONT: 0.0 kph, LEFT_REAR: 0.0 kph, RIGHT_REAR: 0.0 kph)
 (1548862269.139820)  can0  083   [8]  05 CC 00 00 00 00 00 00 :: Unknown frame id 131 (0x83)
 (1548862269.142393)  can0  093   [8]  05 CC 00 00 00 E0 0B 13 :: Unknown frame id 147 (0x93)
 (1548862269.144643)  can0  0B9   [8]  00 04 00 00 00 00 00 00 :: Unknown frame id 185 (0xb9)
 (1548862269.145968)  can0  2B0   [8]  4D 00 00 07 1F 00 00 00 :: STEERING_ANGLE(STEERING_WHEEL_ANGLE: 7.7 degrees)
 (1548862269.147968)  can0  220   [8]  EA 03 05 04 00 00 48 10 :: BRAKE_PRESSURE(BRAKE_PRESSURE: 0.0 bar)
 (1548862269.152043)  can0  073   [8]  05 CC 00 00 00 2D 01 31 :: Unknown frame id 115 (0x73)
 (1548862269.156093)  can0  2B0   [8]  4E 00 00 07 D0 00 00 00 :: STEERING_ANGLE(STEERING_WHEEL_ANGLE: 7.800000000000001 degrees)
 (1548862269.157643)  can0  220   [8]  EB 03 06 04 00 00 42 10 :: BRAKE_PRESSURE(BRAKE_PRESSURE: 0.0 bar)
 (1548862269.158668)  can0  4B0   [8]  00 00 00 00 00 00 00 00 :: WHEEL_SPEED(LEFT_FRONT: 0.0 kph, RIGHT_FRONT: 0.0 kph, LEFT_REAR: 0.0 kph, RIGHT_REAR: 0.0 kph)
 (1548862269.159695)  can0  083   [8]  05 CC 00 00 00 53 01 31 :: Unknown frame id 131 (0x83)
 (1548862269.162393)  can0  093   [8]  05 CC 00 00 00 01 31 08 :: Unknown frame id 147 (0x93)
 (1548862269.164772)  can0  0B9   [8]  00 04 00 00 00 00 00 00 :: Unknown frame id 185 (0xb9)
 (1548862269.166044)  can0  2B0   [8]  4F 00 00 07 D1 00 00 00 :: STEERING_ANGLE(STEERING_WHEEL_ANGLE: 7.9 degrees)
 (1548862269.168071)  can0  220   [8]  EC 03 06 04 00 00 3D 10 :: BRAKE_PRESSURE(BRAKE_PRESSURE: 0.0 bar)
 (1548862269.172043)  can0  073   [8]  05 CC 00 00 00 00 00 00 :: Unknown frame id 115 (0x73)
 (1548862269.175950)  can0  2B0   [8]  4E 00 00 07 F2 00 00 00 :: STEERING_ANGLE(STEERING_WHEEL_ANGLE: 7.800000000000001 degrees)
 (1548862269.177744)  can0  220   [8]  ED 03 05 04 00 00 37 10 :: BRAKE_PRESSURE(BRAKE_PRESSURE: 0.0 bar)
 (1548862269.178768)  can0  4B0   [8]  00 00 00 00 00 00 00 00 :: WHEEL_SPEED(LEFT_FRONT: 0.0 kph, RIGHT_FRONT: 0.0 kph, LEFT_REAR: 0.0 kph, RIGHT_REAR: 0.0 kph)
 (1548862269.179769)  can0  083   [8]  05 CC 00 00 00 53 01 31 :: Unknown frame id 131 (0x83)
 (1548862269.182394)  can0  093   [8]  05 CC 00 00 00 0D 01 31 :: Unknown frame id 147 (0x93)
 (1548862269.184822)  can0  0B9   [8]  00 04 00 00 00 00 00 00 :: Unknown frame id 185 (0xb9)
 (1548862269.186571)  can0  2B0   [8]  4D 00 00 07 D3 00 00 00 :: STEERING_ANGLE(STEERING_WHEEL_ANGLE: 7.7 degrees)
 (1548862269.188169)  can0  220   [8]  ED 03 04 04 00 00 34 10 :: BRAKE_PRESSURE(BRAKE_PRESSURE: 0.0 bar)
 (1548862269.192094)  can0  073   [8]  05 CC 00 00 00 2D 01 31 :: Unknown frame id 115 (0x73)
 (1548862269.196497)  can0  2B0   [8]  4F 00 00 07 84 00 00 00 :: STEERING_ANGLE(STEERING_WHEEL_ANGLE: 7.9 degrees)
 (1548862269.197895)  can0  220   [8]  ED 03 03 04 00 00 31 10 :: BRAKE_PRESSURE(BRAKE_PRESSURE: 0.0 bar)
 (1548862269.198919)  can0  4B0   [8]  00 00 00 00 00 00 00 00 :: WHEEL_SPEED(LEFT_FRONT: 0.0 kph, RIGHT_FRONT: 0.0 kph, LEFT_REAR: 0.0 kph, RIGHT_REAR: 0.0 kph)
 (1548862269.199919)  can0  083   [8]  05 CC 00 00 00 04 04 01 :: Unknown frame id 131 (0x83)
 (1548862269.202394)  can0  093   [8]  05 CC 00 00 00 0D 01 31 :: Unknown frame id 147 (0x93)
 (1548862269.204996)  can0  0B9   [8]  00 04 00 00 00 00 00 00 :: Unknown frame id 185 (0xb9)
 (1548862269.206095)  can0  2B0   [8]  4D 00 00 07 B5 00 00 00 :: STEERING_ANGLE(STEERING_WHEEL_ANGLE: 7.7 degrees)
 (1548862269.208020)  can0  220   [8]  EB 03 02 04 00 00 30 10 :: BRAKE_PRESSURE(BRAKE_PRESSURE: 0.0 bar)
 (1548862269.212047)  can0  073   [8]  05 CC 00 00 00 2D 01 31 :: Unknown frame id 115 (0x73)
 (1548862269.216147)  can0  2B0   [8]  4E 00 00 07 B6 00 00 00 :: STEERING_ANGLE(STEERING_WHEEL_ANGLE: 7.800000000000001 degrees)
 (1548862269.217770)  can0  220   [8]  EA 03 02 04 00 00 34 10 :: BRAKE_PRESSURE(BRAKE_PRESSURE: 0.0 bar)
 (1548862269.218794)  can0  4B0   [8]  00 00 00 00 00 00 00 00 :: WHEEL_SPEED(LEFT_FRONT: 0.0 kph, RIGHT_FRONT: 0.0 kph, LEFT_REAR: 0.0 kph, RIGHT_REAR: 0.0 kph)
 (1548862269.219794)  can0  083   [8]  05 CC 00 00 00 53 01 31 :: Unknown frame id 131 (0x83)
 (1548862269.222394)  can0  093   [8]  05 CC 00 00 00 0D 01 31 :: Unknown frame id 147 (0x93)
 (1548862269.225094)  can0  0B9   [8]  00 04 00 00 00 00 00 00 :: Unknown frame id 185 (0xb9)
 (1548862269.226298)  can0  2B0   [8]  4D 00 00 07 97 00 00 00 :: STEERING_ANGLE(STEERING_WHEEL_ANGLE: 7.7 degrees)
 (1548862269.228217)  can0  220   [8]  EA 03 02 04 00 00 3A 10 :: BRAKE_PRESSURE(BRAKE_PRESSURE: 0.0 bar)
 (1548862269.232253)  can0  073   [8]  05 CC 00 00 00 2D 01 31 :: Unknown frame id 115 (0x73)
 (1548862269.236346)  can0  2B0   [8]  4D 00 00 07 68 00 00 00 :: STEERING_ANGLE(STEERING_WHEEL_ANGLE: 7.7 degrees)
 (1548862269.237863)  can0  220   [8]  EA 03 03 04 00 00 3F 10 :: BRAKE_PRESSURE(BRAKE_PRESSURE: 0.0 bar)
 (1548862269.238775)  can0  4B0   [8]  00 00 00 00 00 00 00 00 :: WHEEL_SPEED(LEFT_FRONT: 0.0 kph, RIGHT_FRONT: 0.0 kph, LEFT_REAR: 0.0 kph, RIGHT_REAR: 0.0 kph)
 (1548862269.239915)  can0  083   [8]  05 CC 00 00 00 53 01 31 :: Unknown frame id 131 (0x83)
 (1548862269.242638)  can0  093   [8]  05 CC 00 00 00 00 00 00 :: Unknown frame id 147 (0x93)
 (1548862269.245400)  can0  0B9   [8]  00 04 00 00 00 00 00 00 :: Unknown frame id 185 (0xb9)
 (1548862269.246405)  can0  2B0   [8]  4D 00 00 07 79 00 00 00 :: STEERING_ANGLE(STEERING_WHEEL_ANGLE: 7.7 degrees)
 (1548862269.248309)  can0  220   [8]  EB 03 04 04 00 00 41 10 :: BRAKE_PRESSURE(BRAKE_PRESSURE: 0.0 bar)
 (1548862269.252240)  can0  073   [8]  05 CC 00 00 00 2D 01 31 :: Unknown frame id 115 (0x73)
 (1548862269.256168)  can0  2B0   [8]  4E 00 00 07 7A 00 00 00 :: STEERING_ANGLE(STEERING_WHEEL_ANGLE: 7.800000000000001 degrees)
 (1548862269.257965)  can0  220   [8]  EC 03 05 04 00 00 41 10 :: BRAKE_PRESSURE(BRAKE_PRESSURE: 0.0 bar)
 (1548862269.258943)  can0  4B0   [8]  00 00 00 00 00 00 00 00 :: WHEEL_SPEED(LEFT_FRONT: 0.0 kph, RIGHT_FRONT: 0.0 kph, LEFT_REAR: 0.0 kph, RIGHT_REAR: 0.0 kph)
 (1548862269.259958)  can0  083   [8]  05 CC 00 00 00 9F 0A DC :: Unknown frame id 131 (0x83)
 (1548862269.262571)  can0  093   [8]  05 CC 00 00 00 0D 01 31 :: Unknown frame id 147 (0x93)
 (1548862269.265477)  can0  0B9   [8]  00 04 00 00 00 00 00 00 :: Unknown frame id 185 (0xb9)
 (1548862269.266479)  can0  2B0   [8]  50 00 00 07 9B 00 00 00 :: STEERING_ANGLE(STEERING_WHEEL_ANGLE: 8.0 degrees)
 (1548862269.268235)  can0  220   [8]  EC 03 05 04 00 00 41 10 :: BRAKE_PRESSURE(BRAKE_PRESSURE: 0.0 bar)
 (1548862269.272201)  can0  073   [8]  05 CC 00 00 00 2D 01 31 :: Unknown frame id 115 (0x73)
 (1548862269.276239)  can0  2B0   [8]  4D 00 00 07 2C 00 00 00 :: STEERING_ANGLE(STEERING_WHEEL_ANGLE: 7.7 degrees)
 (1548862269.277986)  can0  220   [8]  EB 03 06 04 00 00 41 10 :: BRAKE_PRESSURE(BRAKE_PRESSURE: 0.0 bar)
 (1548862269.278988)  can0  4B0   [8]  00 00 00 00 00 00 00 00 :: WHEEL_SPEED(LEFT_FRONT: 0.0 kph, RIGHT_FRONT: 0.0 kph, LEFT_REAR: 0.0 kph, RIGHT_REAR: 0.0 kph)
 (1548862269.279849)  can0  083   [8]  05 CC 00 00 00 53 01 31 :: Unknown frame id 131 (0x83)
 (1548862269.282398)  can0  093   [8]  05 CC 00 00 00 0D 01 31 :: Unknown frame id 147 (0x93)
 (1548862269.285347)  can0  0B9   [8]  00 04 00 00 00 00 00 00 :: Unknown frame id 185 (0xb9)
 (1548862269.286346)  can0  2B0   [8]  4D 00 00 07 3D 00 00 00 :: STEERING_ANGLE(STEERING_WHEEL_ANGLE: 7.7 degrees)
 (1548862269.288097)  can0  220   [8]  E9 03 07 04 00 00 41 10 :: BRAKE_PRESSURE(BRAKE_PRESSURE: 0.0 bar)
 (1548862269.292023)  can0  073   [8]  05 CC 00 00 00 2D 01 31 :: Unknown frame id 115 (0x73)
 (1548862269.296463)  can0  2B0   [8]  4E 00 00 07 3E 00 00 00 :: STEERING_ANGLE(STEERING_WHEEL_ANGLE: 7.800000000000001 degrees)
 (1548862269.297932)  can0  220   [8]  E9 03 05 04 00 00 41 10 :: BRAKE_PRESSURE(BRAKE_PRESSURE: 0.0 bar)
 (1548862269.298843)  can0  4B0   [8]  00 00 00 00 00 00 00 00 :: WHEEL_SPEED(LEFT_FRONT: 0.0 kph, RIGHT_FRONT: 0.0 kph, LEFT_REAR: 0.0 kph, RIGHT_REAR: 0.0 kph)
 (1548862269.299887)  can0  083   [8]  05 CC 00 00 00 53 01 31 :: Unknown frame id 131 (0x83)
 (1548862269.302450)  can0  093   [8]  05 CC 00 00 00 0D 01 31 :: Unknown frame id 147 (0x93)
 (1548862269.305663)  can0  0B9   [8]  00 04 00 00 00 00 00 00 :: Unknown frame id 185 (0xb9)
 (1548862269.306612)  can0  2B0   [8]  4E 00 00 07 2F 00 00 00 :: STEERING_ANGLE(STEERING_WHEEL_ANGLE: 7.800000000000001 degrees)
 (1548862269.308113)  can0  220   [8]  E9 03 03 04 00 00 41 10 :: BRAKE_PRESSURE(BRAKE_PRESSURE: 0.0 bar)
 (1548862269.312196)  can0  073   [8]  05 CC 00 00 00 00 00 00 :: Unknown frame id 115 (0x73)
 (1548862269.316236)  can0  2B0   [8]  4D 00 00 07 E0 00 00 00 :: STEERING_ANGLE(STEERING_WHEEL_ANGLE: 7.7 degrees)
 (1548862269.317788)  can0  220   [8]  EA 03 03 04 00 00 41 10 :: BRAKE_PRESSURE(BRAKE_PRESSURE: 0.0 bar)
 (1548862269.318753)  can0  4B0   [8]  00 00 00 00 00 00 00 00 :: WHEEL_SPEED(LEFT_FRONT: 0.0 kph, RIGHT_FRONT: 0.0 kph, LEFT_REAR: 0.0 kph, RIGHT_REAR: 0.0 kph)
 (1548862269.319751)  can0  083   [8]  05 CC 00 00 00 0A DC 0B :: Unknown frame id 131 (0x83)
 (1548862269.322456)  can0  093   [8]  05 CC 00 00 00 0D 01 31 :: Unknown frame id 147 (0x93)
 (1548862269.325768)  can0  0B9   [8]  00 04 00 00 00 00 00 00 :: Unknown frame id 185 (0xb9)
 (1548862269.326767)  can0  2B0   [8]  4D 00 00 07 F1 00 00 00 :: STEERING_ANGLE(STEERING_WHEEL_ANGLE: 7.7 degrees)
 (1548862269.328241)  can0  220   [8]  EB 03 05 04 00 00 41 10 :: BRAKE_PRESSURE(BRAKE_PRESSURE: 0.0 bar)
 (1548862269.332161)  can0  073   [8]  05 CC 00 00 00 2D 01 31 :: Unknown frame id 115 (0x73)
 (1548862269.336096)  can0  2B0   [8]  4E 00 00 07 F2 00 00 00 :: STEERING_ANGLE(STEERING_WHEEL_ANGLE: 7.800000000000001 degrees)
 (1548862269.337809)  can0  220   [8]  EA 03 05 04 00 00 41 10 :: BRAKE_PRESSURE(BRAKE_PRESSURE: 0.0 bar)
 (1548862269.338771)  can0  4B0   [8]  00 00 00 00 00 00 00 00 :: WHEEL_SPEED(LEFT_FRONT: 0.0 kph, RIGHT_FRONT: 0.0 kph, LEFT_REAR: 0.0 kph, RIGHT_REAR: 0.0 kph)
 (1548862269.339847)  can0  083   [8]  05 CC 00 00 00 53 01 31 :: Unknown frame id 131 (0x83)
 (1548862269.342537)  can0  093   [8]  05 CC 00 00 00 0D 01 31 :: Unknown frame id 147 (0x93)
 (1548862269.345778)  can0  0B9   [8]  00 04 00 00 00 00 00 00 :: Unknown frame id 185 (0xb9)
 (1548862269.346783)  can0  2B0   [8]  4D 00 00 07 D3 00 00 00 :: STEERING_ANGLE(STEERING_WHEEL_ANGLE: 7.7 degrees)
 (1548862269.348002)  can0  220   [8]  EA 03 04 04 00 00 3E 10 :: BRAKE_PRESSURE(BRAKE_PRESSURE: 0.0 bar)
 (1548862269.352166)  can0  073   [8]  05 CC 00 00 00 2D 01 31 :: Unknown frame id 115 (0x73)
 (1548862269.356138)  can0  2B0   [8]  4D 00 00 07 A4 00 00 00 :: STEERING_ANGLE(STEERING_WHEEL_ANGLE: 7.7 degrees)
 (1548862269.357968)  can0  220   [8]  E9 03 04 04 00 00 3A 10 :: BRAKE_PRESSURE(BRAKE_PRESSURE: 0.0 bar)
 (1548862269.358880)  can0  4B0   [8]  00 00 00 00 00 00 00 00 :: WHEEL_SPEED(LEFT_FRONT: 0.0 kph, RIGHT_FRONT: 0.0 kph, LEFT_REAR: 0.0 kph, RIGHT_REAR: 0.0 kph)
 (1548862269.359926)  can0  083   [8]  05 CC 00 00 00 53 01 31 :: Unknown frame id 131 (0x83)
 (1548862269.362450)  can0  093   [8]  05 CC 00 00 00 0D 01 31 :: Unknown frame id 147 (0x93)
 (1548862269.365936)  can0  0B9   [8]  00 04 00 00 00 00 00 00 :: Unknown frame id 185 (0xb9)
 (1548862269.366883)  can0  2B0   [8]  4F 00 00 07 95 00 00 00 :: STEERING_ANGLE(STEERING_WHEEL_ANGLE: 7.9 degrees)
 (1548862269.368195)  can0  220   [8]  E8 03 05 04 00 00 37 10 :: BRAKE_PRESSURE(BRAKE_PRESSURE: 0.0 bar)
 (1548862269.372139)  can0  073   [8]  05 CC 00 00 00 2D 01 31 :: Unknown frame id 115 (0x73)
 (1548862269.376026)  can0  2B0   [8]  4D 00 00 07 86 00 00 00 :: STEERING_ANGLE(STEERING_WHEEL_ANGLE: 7.7 degrees)
 (1548862269.377725)  can0  220   [8]  E8 03 04 04 00 00 39 10 :: BRAKE_PRESSURE(BRAKE_PRESSURE: 0.0 bar)
 (1548862269.378713)  can0  4B0   [8]  00 00 00 00 00 00 00 00 :: WHEEL_SPEED(LEFT_FRONT: 0.0 kph, RIGHT_FRONT: 0.0 kph, LEFT_REAR: 0.0 kph, RIGHT_REAR: 0.0 kph)
 (1548862269.379739)  can0  083   [8]  05 CC 00 00 00 53 01 31 :: Unknown frame id 131 (0x83)
 (1548862269.382362)  can0  093   [8]  05 CC 00 00 00 00 00 00 :: Unknown frame id 147 (0x93)
 (1548862269.386016)  can0  0B9   [8]  00 04 00 00 00 00 00 00 :: Unknown frame id 185 (0xb9)
 (1548862269.386961)  can0  2B0   [8]  4D 00 00 07 97 00 00 00 :: STEERING_ANGLE(STEERING_WHEEL_ANGLE: 7.7 degrees)
 (1548862269.388059)  can0  220   [8]  EA 03 04 04 00 00 3C 10 :: BRAKE_PRESSURE(BRAKE_PRESSURE: 0.0 bar)
 (1548862269.392088)  can0  073   [8]  05 CC 00 00 00 00 00 00 :: Unknown frame id 115 (0x73)
 (1548862269.396811)  can0  2B0   [8]  4D 00 00 07 68 00 00 00 :: STEERING_ANGLE(STEERING_WHEEL_ANGLE: 7.7 degrees)
 (1548862269.397994)  can0  220   [8]  EB 03 04 04 00 00 3F 10 :: BRAKE_PRESSURE(BRAKE_PRESSURE: 0.0 bar)
 (1548862269.398932)  can0  4B0   [8]  00 00 00 00 00 00 00 00 :: WHEEL_SPEED(LEFT_FRONT: 0.0 kph, RIGHT_FRONT: 0.0 kph, LEFT_REAR: 0.0 kph, RIGHT_REAR: 0.0 kph)
 (1548862269.399950)  can0  083   [8]  05 CC 00 00 00 53 01 31 :: Unknown frame id 131 (0x83)
 (1548862269.402478)  can0  093   [8]  05 CC 00 00 00 0D 01 31 :: Unknown frame id 147 (0x93)
 (1548862269.406163)  can0  2B0   [8]  4D 00 00 07 79 00 00 00 :: STEERING_ANGLE(STEERING_WHEEL_ANGLE: 7.7 degrees)
 (1548862269.407130)  can0  0B9   [8]  00 04 00 00 00 00 00 00 :: Unknown frame id 185 (0xb9)
 (1548862269.408153)  can0  220   [8]  ED 03 04 04 00 00 40 10 :: BRAKE_PRESSURE(BRAKE_PRESSURE: 0.0 bar)
 (1548862269.412105)  can0  073   [8]  05 CC 00 00 00 2D 01 31 :: Unknown frame id 115 (0x73)
 (1548862269.416262)  can0  2B0   [8]  4D 00 00 07 4A 00 00 00 :: STEERING_ANGLE(STEERING_WHEEL_ANGLE: 7.7 degrees)
 (1548862269.417844)  can0  220   [8]  ED 03 04 04 00 00 40 10 :: BRAKE_PRESSURE(BRAKE_PRESSURE: 0.0 bar)
 (1548862269.418796)  can0  4B0   [8]  00 00 00 00 00 00 00 00 :: WHEEL_SPEED(LEFT_FRONT: 0.0 kph, RIGHT_FRONT: 0.0 kph, LEFT_REAR: 0.0 kph, RIGHT_REAR: 0.0 kph)
 (1548862269.419802)  can0  083   [8]  05 CC 00 00 00 53 01 31 :: Unknown frame id 131 (0x83)
 (1548862269.422490)  can0  093   [8]  05 CC 00 00 00 0D 01 31 :: Unknown frame id 147 (0x93)
 (1548862269.426262)  can0  2B0   [8]  4D 00 00 07 5B 00 00 00 :: STEERING_ANGLE(STEERING_WHEEL_ANGLE: 7.7 degrees)
 (1548862269.427201)  can0  0B9   [8]  00 04 00 00 00 00 00 00 :: Unknown frame id 185 (0xb9)
 (1548862269.428291)  can0  220   [8]  EA 03 05 04 00 00 3E 10 :: BRAKE_PRESSURE(BRAKE_PRESSURE: 0.0 bar)
 (1548862269.432171)  can0  073   [8]  05 CC 00 00 00 2D 01 31 :: Unknown frame id 115 (0x73)
 (1548862269.436115)  can0  2B0   [8]  4D 00 00 07 2C 00 00 00 :: STEERING_ANGLE(STEERING_WHEEL_ANGLE: 7.7 degrees)
 (1548862269.437803)  can0  220   [8]  EA 03 06 04 00 00 3B 10 :: BRAKE_PRESSURE(BRAKE_PRESSURE: 0.0 bar)
 (1548862269.438918)  can0  4B0   [8]  00 00 00 00 00 00 00 00 :: WHEEL_SPEED(LEFT_FRONT: 0.0 kph, RIGHT_FRONT: 0.0 kph, LEFT_REAR: 0.0 kph, RIGHT_REAR: 0.0 kph)
 (1548862269.439807)  can0  083   [8]  05 CC 00 00 00 00 00 00 :: Unknown frame id 131 (0x83)
 (1548862269.442490)  can0  093   [8]  05 CC 00 00 00 0D 01 31 :: Unknown frame id 147 (0x93)
 (1548862269.446090)  can0  2B0   [8]  4E 00 00 07 0D 00 00 00 :: STEERING_ANGLE(STEERING_WHEEL_ANGLE: 7.800000000000001 degrees)
 (1548862269.447023)  can0  0B9   [8]  00 04 00 00 00 00 00 00 :: Unknown frame id 185 (0xb9)
 (1548862269.448114)  can0  220   [8]  EB 03 06 04 00 00 39 10 :: BRAKE_PRESSURE(BRAKE_PRESSURE: 0.0 bar)
 (1548862269.452142)  can0  073   [8]  05 CC 00 00 00 8A 00 00 :: Unknown frame id 115 (0x73)
 (1548862269.456201)  can0  2B0   [8]  4D 00 00 07 0E 00 00 00 :: STEERING_ANGLE(STEERING_WHEEL_ANGLE: 7.7 degrees)
 (1548862269.457990)  can0  220   [8]  ED 03 06 04 00 00 36 10 :: BRAKE_PRESSURE(BRAKE_PRESSURE: 0.0 bar)
 (1548862269.458923)  can0  4B0   [8]  00 00 00 00 00 00 00 00 :: WHEEL_SPEED(LEFT_FRONT: 0.0 kph, RIGHT_FRONT: 0.0 kph, LEFT_REAR: 0.0 kph, RIGHT_REAR: 0.0 kph)
 (1548862269.459952)  can0  083   [8]  05 CC 00 00 00 53 01 31 :: Unknown frame id 131 (0x83)
 (1548862269.462419)  can0  093   [8]  05 CC 00 00 00 31 08 04 :: Unknown frame id 147 (0x93)
 (1548862269.466219)  can0  2B0   [8]  4E 00 00 07 2F 00 00 00 :: STEERING_ANGLE(STEERING_WHEEL_ANGLE: 7.800000000000001 degrees)
 (1548862269.467148)  can0  0B9   [8]  00 04 00 00 00 00 00 00 :: Unknown frame id 185 (0xb9)
 (1548862269.468168)  can0  220   [8]  ED 03 06 04 00 00 36 10 :: BRAKE_PRESSURE(BRAKE_PRESSURE: 0.0 bar)
 (1548862269.472113)  can0  073   [8]  05 CC 00 00 00 2D 01 31 :: Unknown frame id 115 (0x73)
 (1548862269.476319)  can0  2B0   [8]  4D 00 00 07 E0 00 00 00 :: STEERING_ANGLE(STEERING_WHEEL_ANGLE: 7.7 degrees)
 (1548862269.477869)  can0  220   [8]  EB 03 05 04 00 00 39 10 :: BRAKE_PRESSURE(BRAKE_PRESSURE: 0.0 bar)
 (1548862269.478797)  can0  4B0   [8]  00 00 00 00 00 00 00 00 :: WHEEL_SPEED(LEFT_FRONT: 0.0 kph, RIGHT_FRONT: 0.0 kph, LEFT_REAR: 0.0 kph, RIGHT_REAR: 0.0 kph)
 (1548862269.479878)  can0  083   [8]  05 CC 00 00 00 53 01 31 :: Unknown frame id 131 (0x83)
 (1548862269.482517)  can0  093   [8]  05 CC 00 00 00 0D 01 31 :: Unknown frame id 147 (0x93)
 (1548862269.486606)  can0  2B0   [8]  4D 00 00 07 F1 00 00 00 :: STEERING_ANGLE(STEERING_WHEEL_ANGLE: 7.7 degrees)
 (1548862269.487614)  can0  0B9   [8]  00 04 00 00 00 00 00 00 :: Unknown frame id 185 (0xb9)
 (1548862269.488640)  can0  220   [8]  E9 03 04 04 00 00 3B 10 :: BRAKE_PRESSURE(BRAKE_PRESSURE: 0.0 bar)
 (1548862269.492018)  can0  073   [8]  05 CC 00 00 00 2D 01 31 :: Unknown frame id 115 (0x73)
 (1548862269.496555)  can0  2B0   [8]  4D 00 00 07 C2 00 00 00 :: STEERING_ANGLE(STEERING_WHEEL_ANGLE: 7.7 degrees)
 (1548862269.497968)  can0  220   [8]  E8 03 04 04 00 00 3D 10 :: BRAKE_PRESSURE(BRAKE_PRESSURE: 0.0 bar)
 (1548862269.498926)  can0  4B0   [8]  00 00 00 00 00 00 00 00 :: WHEEL_SPEED(LEFT_FRONT: 0.0 kph, RIGHT_FRONT: 0.0 kph, LEFT_REAR: 0.0 kph, RIGHT_REAR: 0.0 kph)
 (1548862269.499928)  can0  083   [8]  05 CC 00 00 00 01 31 08 :: Unknown frame id 131 (0x83)
 (1548862269.502399)  can0  093   [8]  05 CC 00 00 00 0D 01 31 :: Unknown frame id 147 (0x93)
 (1548862269.506164)  can0  2B0   [8]  4D 00 00 07 D3 00 00 00 :: STEERING_ANGLE(STEERING_WHEEL_ANGLE: 7.7 degrees)
 (1548862269.507435)  can0  0B9   [8]  00 04 00 00 00 00 00 00 :: Unknown frame id 185 (0xb9)
 (1548862269.508456)  can0  220   [8]  E8 03 04 04 00 00 3D 10 :: BRAKE_PRESSURE(BRAKE_PRESSURE: 0.0 bar)
 (1548862269.512058)  can0  073   [8]  05 CC 00 00 00 2D 01 31 :: Unknown frame id 115 (0x73)
 (1548862269.516176)  can0  2B0   [8]  4D 00 00 07 A4 00 00 00 :: STEERING_ANGLE(STEERING_WHEEL_ANGLE: 7.7 degrees)
 (1548862269.517975)  can0  220   [8]  E9 03 04 04 00 00 3D 10 :: BRAKE_PRESSURE(BRAKE_PRESSURE: 0.0 bar)
 (1548862269.518974)  can0  4B0   [8]  00 00 00 00 00 00 00 00 :: WHEEL_SPEED(LEFT_FRONT: 0.0 kph, RIGHT_FRONT: 0.0 kph, LEFT_REAR: 0.0 kph, RIGHT_REAR: 0.0 kph)
 (1548862269.519916)  can0  083   [8]  05 CC 00 00 00 53 01 31 :: Unknown frame id 131 (0x83)
 (1548862269.522493)  can0  093   [8]  05 CC 00 00 00 0D 01 31 :: Unknown frame id 147 (0x93)
 (1548862269.526219)  can0  2B0   [8]  4F 00 00 07 95 00 00 00 :: STEERING_ANGLE(STEERING_WHEEL_ANGLE: 7.9 degrees)
 (1548862269.527640)  can0  0B9   [8]  00 04 00 00 00 00 00 00 :: Unknown frame id 185 (0xb9)
 (1548862269.528586)  can0  220   [8]  E8 03 03 04 00 00 3D 10 :: BRAKE_PRESSURE(BRAKE_PRESSURE: 0.0 bar)
 (1548862269.532067)  can0  073   [8]  05 CC 00 00 00 04 04 01 :: Unknown frame id 115 (0x73)
 (1548862269.536145)  can0  2B0   [8]  4E 00 00 07 B6 00 00 00 :: STEERING_ANGLE(STEERING_WHEEL_ANGLE: 7.800000000000001 degrees)
 (1548862269.537957)  can0  220   [8]  E8 03 03 04 00 00 3D 10 :: BRAKE_PRESSURE(BRAKE_PRESSURE: 0.0 bar)
 (1548862269.538980)  can0  4B0   [8]  00 00 00 00 00 00 00 00 :: WHEEL_SPEED(LEFT_FRONT: 0.0 kph, RIGHT_FRONT: 0.0 kph, LEFT_REAR: 0.0 kph, RIGHT_REAR: 0.0 kph)
 (1548862269.539957)  can0  083   [8]  05 CC 00 00 00 53 01 31 :: Unknown frame id 131 (0x83)
 (1548862269.542390)  can0  093   [8]  05 CC 00 00 00 0D 01 31 :: Unknown frame id 147 (0x93)
 (1548862269.546125)  can0  2B0   [8]  4E 00 00 07 A7 00 00 00 :: STEERING_ANGLE(STEERING_WHEEL_ANGLE: 7.800000000000001 degrees)
 (1548862269.547714)  can0  0B9   [8]  00 04 00 00 00 00 00 00 :: Unknown frame id 185 (0xb9)
 (1548862269.548717)  can0  220   [8]  E9 03 02 04 00 00 3D 10 :: BRAKE_PRESSURE(BRAKE_PRESSURE: 0.0 bar)
 (1548862269.552127)  can0  073   [8]  05 CC 00 00 00 2D 01 31 :: Unknown frame id 115 (0x73)
 (1548862269.556081)  can0  2B0   [8]  4D 00 00 07 68 00 00 00 :: STEERING_ANGLE(STEERING_WHEEL_ANGLE: 7.7 degrees)
 (1548862269.557860)  can0  220   [8]  EA 03 03 04 00 00 3D 10 :: BRAKE_PRESSURE(BRAKE_PRESSURE: 0.0 bar)
 (1548862269.558862)  can0  4B0   [8]  00 00 00 00 00 00 00 00 :: WHEEL_SPEED(LEFT_FRONT: 0.0 kph, RIGHT_FRONT: 0.0 kph, LEFT_REAR: 0.0 kph, RIGHT_REAR: 0.0 kph)
 (1548862269.559849)  can0  083   [8]  05 CC 00 00 00 00 00 00 :: Unknown frame id 131 (0x83)
 (1548862269.562399)  can0  093   [8]  05 CC 00 00 00 0D 01 31 :: Unknown frame id 147 (0x93)
 (1548862269.566187)  can0  2B0   [8]  4D 00 00 07 79 00 00 00 :: STEERING_ANGLE(STEERING_WHEEL_ANGLE: 7.7 degrees)
 (1548862269.567746)  can0  0B9   [8]  00 04 00 00 00 00 00 00 :: Unknown frame id 185 (0xb9)
 (1548862269.568769)  can0  220   [8]  EC 03 04 04 00 00 3D 10 :: BRAKE_PRESSURE(BRAKE_PRESSURE: 0.0 bar)
 (1548862269.571991)  can0  073   [8]  05 CC 00 00 00 2D 01 31 :: Unknown frame id 115 (0x73)
 (1548862269.576046)  can0  2B0   [8]  4E 00 00 07 7A 00 00 00 :: STEERING_ANGLE(STEERING_WHEEL_ANGLE: 7.800000000000001 degrees)
 (1548862269.577848)  can0  220   [8]  EB 03 05 04 00 00 3D 10 :: BRAKE_PRESSURE(BRAKE_PRESSURE: 0.0 bar)
 (1548862269.578848)  can0  4B0   [8]  00 00 00 00 00 00 00 00 :: WHEEL_SPEED(LEFT_FRONT: 0.0 kph, RIGHT_FRONT: 0.0 kph, LEFT_REAR: 0.0 kph, RIGHT_REAR: 0.0 kph)
 (1548862269.579864)  can0  083   [8]  05 CC 00 00 00 53 01 31 :: Unknown frame id 131 (0x83)
 (1548862269.582344)  can0  093   [8]  05 CC 00 00 00 0D 01 31 :: Unknown frame id 147 (0x93)
 (1548862269.586265)  can0  2B0   [8]  4D 00 00 07 5B 00 00 00 :: STEERING_ANGLE(STEERING_WHEEL_ANGLE: 7.7 degrees)
 (1548862269.587854)  can0  0B9   [8]  00 04 00 00 00 00 00 00 :: Unknown frame id 185 (0xb9)
 (1548862269.588849)  can0  220   [8]  EA 03 05 04 00 00 3D 10 :: BRAKE_PRESSURE(BRAKE_PRESSURE: 0.0 bar)
 (1548862269.591972)  can0  073   [8]  05 CC 00 00 00 2D 01 31 :: Unknown frame id 115 (0x73)
 (1548862269.596394)  can0  2B0   [8]  4D 00 00 07 2C 00 00 00 :: STEERING_ANGLE(STEERING_WHEEL_ANGLE: 7.7 degrees)
 (1548862269.597945)  can0  220   [8]  E9 03 05 04 00 00 3D 10 :: BRAKE_PRESSURE(BRAKE_PRESSURE: 0.0 bar)
 (1548862269.598942)  can0  4B0   [8]  00 00 00 00 00 00 00 00 :: WHEEL_SPEED(LEFT_FRONT: 0.0 kph, RIGHT_FRONT: 0.0 kph, LEFT_REAR: 0.0 kph, RIGHT_REAR: 0.0 kph)
 (1548862269.599968)  can0  083   [8]  05 CC 00 00 00 53 01 31 :: Unknown frame id 131 (0x83)
 (1548862269.602347)  can0  093   [8]  05 CC 00 00 00 0A E0 0B :: Unknown frame id 147 (0x93)
 (1548862269.606131)  can0  2B0   [8]  4E 00 00 07 0D 00 00 00 :: STEERING_ANGLE(STEERING_WHEEL_ANGLE: 7.800000000000001 degrees)
 (1548862269.607910)  can0  0B9   [8]  00 04 00 00 00 00 00 00 :: Unknown frame id 185 (0xb9)
 (1548862269.608918)  can0  220   [8]  E9 03 05 04 00 00 3D 10 :: BRAKE_PRESSURE(BRAKE_PRESSURE: 0.0 bar)
 (1548862269.612009)  can0  073   [8]  05 CC 00 00 00 2D 01 31 :: Unknown frame id 115 (0x73)
 (1548862269.615977)  can0  2B0   [8]  4D 00 00 07 0E 00 00 00 :: STEERING_ANGLE(STEERING_WHEEL_ANGLE: 7.7 degrees)
 (1548862269.617779)  can0  220   [8]  E9 03 05 04 00 00 3D 10 :: BRAKE_PRESSURE(BRAKE_PRESSURE: 0.0 bar)
 (1548862269.618778)  can0  4B0   [8]  00 00 00 00 00 00 00 00 :: WHEEL_SPEED(LEFT_FRONT: 0.0 kph, RIGHT_FRONT: 0.0 kph, LEFT_REAR: 0.0 kph, RIGHT_REAR: 0.0 kph)
 (1548862269.619803)  can0  083   [8]  05 CC 00 00 00 12 9C A2 :: Unknown frame id 131 (0x83)
 (1548862269.622332)  can0  093   [8]  05 CC 00 00 00 0D 01 31 :: Unknown frame id 147 (0x93)
 (1548862269.626184)  can0  2B0   [8]  4D 00 00 07 1F 00 00 00 :: STEERING_ANGLE(STEERING_WHEEL_ANGLE: 7.7 degrees)
 (1548862269.627979)  can0  220   [8]  E9 03 05 04 00 00 3D 10 :: BRAKE_PRESSURE(BRAKE_PRESSURE: 0.0 bar)
 (1548862269.629006)  can0  0B9   [8]  00 04 00 00 00 00 00 00 :: Unknown frame id 185 (0xb9)
 (1548862269.631980)  can0  073   [8]  05 CC 00 00 00 2D 01 31 :: Unknown frame id 115 (0x73)
 (1548862269.636059)  can0  2B0   [8]  4D 00 00 07 E0 00 00 00 :: STEERING_ANGLE(STEERING_WHEEL_ANGLE: 7.7 degrees)
 (1548862269.637853)  can0  220   [8]  EA 03 05 04 00 00 3D 10 :: BRAKE_PRESSURE(BRAKE_PRESSURE: 0.0 bar)
 (1548862269.638879)  can0  4B0   [8]  00 00 00 00 00 00 00 00 :: WHEEL_SPEED(LEFT_FRONT: 0.0 kph, RIGHT_FRONT: 0.0 kph, LEFT_REAR: 0.0 kph, RIGHT_REAR: 0.0 kph)
 (1548862269.639879)  can0  083   [8]  05 CC 00 00 00 53 01 31 :: Unknown frame id 131 (0x83)
 (1548862269.642331)  can0  093   [8]  05 CC 00 00 00 0D 01 31 :: Unknown frame id 147 (0x93)
 (1548862269.646081)  can0  2B0   [8]  4E 00 00 07 C1 00 00 00 :: STEERING_ANGLE(STEERING_WHEEL_ANGLE: 7.800000000000001 degrees)
 (1548862269.648081)  can0  220   [8]  EA 03 05 04 00 00 3D 10 :: BRAKE_PRESSURE(BRAKE_PRESSURE: 0.0 bar)
 (1548862269.649081)  can0  0B9   [8]  00 04 00 00 00 00 00 00 :: Unknown frame id 185 (0xb9)
 (1548862269.651956)  can0  073   [8]  05 CC 00 00 00 2D 01 31 :: Unknown frame id 115 (0x73)
 (1548862269.655934)  can0  2B0   [8]  4D 00 00 07 C2 00 00 00 :: STEERING_ANGLE(STEERING_WHEEL_ANGLE: 7.7 degrees)
 (1548862269.657734)  can0  220   [8]  EB 03 05 04 00 00 3D 10 :: BRAKE_PRESSURE(BRAKE_PRESSURE: 0.0 bar)
 (1548862269.658731)  can0  4B0   [8]  00 00 00 00 00 00 00 00 :: WHEEL_SPEED(LEFT_FRONT: 0.0 kph, RIGHT_FRONT: 0.0 kph, LEFT_REAR: 0.0 kph, RIGHT_REAR: 0.0 kph)
 (1548862269.659752)  can0  083   [8]  05 CC 00 00 00 53 01 31 :: Unknown frame id 131 (0x83)
 (1548862269.662314)  can0  093   [8]  05 CC 00 00 00 0A E0 0B :: Unknown frame id 147 (0x93)
 (1548862269.666184)  can0  2B0   [8]  4E 00 00 07 E3 00 00 00 :: STEERING_ANGLE(STEERING_WHEEL_ANGLE: 7.800000000000001 degrees)
 (1548862269.668192)  can0  220   [8]  EC 03 05 04 00 00 3D 10 :: BRAKE_PRESSURE(BRAKE_PRESSURE: 0.0 bar)
 (1548862269.668780)  can0  0B9   [8]  00 04 00 00 00 00 00 00 :: Unknown frame id 185 (0xb9)
 (1548862269.671966)  can0  073   [8]  05 CC 00 00 00 9F 0A E0 :: Unknown frame id 115 (0x73)
 (1548862269.676067)  can0  2B0   [8]  4D 00 00 07 A4 00 00 00 :: STEERING_ANGLE(STEERING_WHEEL_ANGLE: 7.7 degrees)
 (1548862269.677865)  can0  220   [8]  EC 03 06 04 00 00 3F 10 :: BRAKE_PRESSURE(BRAKE_PRESSURE: 0.0 bar)
 (1548862269.678865)  can0  4B0   [8]  00 00 00 00 00 00 00 00 :: WHEEL_SPEED(LEFT_FRONT: 0.0 kph, RIGHT_FRONT: 0.0 kph, LEFT_REAR: 0.0 kph, RIGHT_REAR: 0.0 kph)
 (1548862269.679924)  can0  083   [8]  05 CC 00 00 00 01 31 08 :: Unknown frame id 131 (0x83)
 (1548862269.682323)  can0  093   [8]  05 CC 00 00 00 0D 01 31 :: Unknown frame id 147 (0x93)
 (1548862269.686721)  can0  2B0   [8]  4D 00 00 07 B5 00 00 00 :: STEERING_ANGLE(STEERING_WHEEL_ANGLE: 7.7 degrees)
 (1548862269.688296)  can0  220   [8]  EB 03 06 04 00 00 3F 10 :: BRAKE_PRESSURE(BRAKE_PRESSURE: 0.0 bar)
 (1548862269.689292)  can0  0B9   [8]  00 04 00 00 00 00 00 00 :: Unknown frame id 185 (0xb9)
 (1548862269.691942)  can0  073   [8]  05 CC 00 00 00 2D 01 31 :: Unknown frame id 115 (0x73)
 (1548862269.696341)  can0  2B0   [8]  4D 00 00 07 86 00 00 00 :: STEERING_ANGLE(STEERING_WHEEL_ANGLE: 7.7 degrees)
 (1548862269.697943)  can0  220   [8]  EA 03 05 04 00 00 3F 10 :: BRAKE_PRESSURE(BRAKE_PRESSURE: 0.0 bar)
 (1548862269.698941)  can0  4B0   [8]  00 00 00 00 00 00 00 00 :: WHEEL_SPEED(LEFT_FRONT: 0.0 kph, RIGHT_FRONT: 0.0 kph, LEFT_REAR: 0.0 kph, RIGHT_REAR: 0.0 kph)
 (1548862269.699967)  can0  083   [8]  05 CC 00 00 00 53 01 31 :: Unknown frame id 131 (0x83)
 (1548862269.702382)  can0  093   [8]  05 CC 00 00 00 0D 01 31 :: Unknown frame id 147 (0x93)
 (1548862269.706129)  can0  2B0   [8]  4D 00 00 07 97 00 00 00 :: STEERING_ANGLE(STEERING_WHEEL_ANGLE: 7.7 degrees)
 (1548862269.708198)  can0  220   [8]  EA 03 05 04 00 00 3F 10 :: BRAKE_PRESSURE(BRAKE_PRESSURE: 0.0 bar)
 (1548862269.709193)  can0  0B9   [8]  00 04 00 00 00 00 00 00 :: Unknown frame id 185 (0xb9)
 (1548862269.711978)  can0  073   [8]  05 CC 00 00 00 2D 01 31 :: Unknown frame id 115 (0x73)
 (1548862269.716024)  can0  2B0   [8]  4E 00 00 07 58 00 00 00 :: STEERING_ANGLE(STEERING_WHEEL_ANGLE: 7.800000000000001 degrees)
 (1548862269.717822)  can0  220   [8]  EB 03 05 04 00 00 3F 10 :: BRAKE_PRESSURE(BRAKE_PRESSURE: 0.0 bar)
 (1548862269.718847)  can0  4B0   [8]  00 00 00 00 00 00 00 00 :: WHEEL_SPEED(LEFT_FRONT: 0.0 kph, RIGHT_FRONT: 0.0 kph, LEFT_REAR: 0.0 kph, RIGHT_REAR: 0.0 kph)
 (1548862269.719844)  can0  083   [8]  05 CC 00 00 00 53 01 31 :: Unknown frame id 131 (0x83)
 (1548862269.722318)  can0  093   [8]  05 CC 00 00 00 0D 01 31 :: Unknown frame id 147 (0x93)
 (1548862269.725994)  can0  2B0   [8]  4D 00 00 07 79 00 00 00 :: STEERING_ANGLE(STEERING_WHEEL_ANGLE: 7.7 degrees)
 (1548862269.728024)  can0  220   [8]  EB 03 03 04 00 00 3F 10 :: BRAKE_PRESSURE(BRAKE_PRESSURE: 0.0 bar)
 (1548862269.729043)  can0  0B9   [8]  00 04 00 00 00 00 00 00 :: Unknown frame id 185 (0xb9)
 (1548862269.732047)  can0  073   [8]  05 CC 00 00 00 2D 01 31 :: Unknown frame id 115 (0x73)
 (1548862269.736103)  can0  2B0   [8]  4D 00 00 07 4A 00 00 00 :: STEERING_ANGLE(STEERING_WHEEL_ANGLE: 7.7 degrees)
 (1548862269.737868)  can0  220   [8]  EB 03 02 04 00 00 3F 10 :: BRAKE_PRESSURE(BRAKE_PRESSURE: 0.0 bar)
 (1548862269.738953)  can0  4B0   [8]  00 00 00 00 00 00 00 00 :: WHEEL_SPEED(LEFT_FRONT: 0.0 kph, RIGHT_FRONT: 0.0 kph, LEFT_REAR: 0.0 kph, RIGHT_REAR: 0.0 kph)
 (1548862269.739893)  can0  083   [8]  05 CC 00 00 00 0A DC 0B :: Unknown frame id 131 (0x83)
 (1548862269.742295)  can0  093   [8]  05 CC 00 00 00 0A 00 08 :: Unknown frame id 147 (0x93)
 (1548862269.746188)  can0  2B0   [8]  4E 00 00 07 6B 00 00 00 :: STEERING_ANGLE(STEERING_WHEEL_ANGLE: 7.800000000000001 degrees)
 (1548862269.748103)  can0  220   [8]  EB 03 02 04 00 00 3F 10 :: BRAKE_PRESSURE(BRAKE_PRESSURE: 0.0 bar)
 (1548862269.749120)  can0  0B9   [8]  00 04 00 00 00 00 00 00 :: Unknown frame id 185 (0xb9)
 (1548862269.751944)  can0  073   [8]  05 CC 00 00 00 2D 01 31 :: Unknown frame id 115 (0x73)
 (1548862269.756174)  can0  2B0   [8]  4D 00 00 07 2C 00 00 00 :: STEERING_ANGLE(STEERING_WHEEL_ANGLE: 7.7 degrees)
 (1548862269.757779)  can0  220   [8]  EB 03 02 04 00 00 3F 10 :: BRAKE_PRESSURE(BRAKE_PRESSURE: 0.0 bar)
 (1548862269.758805)  can0  4B0   [8]  00 00 00 00 00 00 00 00 :: WHEEL_SPEED(LEFT_FRONT: 0.0 kph, RIGHT_FRONT: 0.0 kph, LEFT_REAR: 0.0 kph, RIGHT_REAR: 0.0 kph)
 (1548862269.759821)  can0  083   [8]  05 CC 00 00 00 53 01 31 :: Unknown frame id 131 (0x83)
 (1548862269.762327)  can0  093   [8]  05 CC 00 00 00 0D 01 31 :: Unknown frame id 147 (0x93)
 (1548862269.766227)  can0  2B0   [8]  50 00 00 07 FD 00 00 00 :: STEERING_ANGLE(STEERING_WHEEL_ANGLE: 8.0 degrees)
 (1548862269.768101)  can0  220   [8]  EB 03 02 04 00 00 3F 10 :: BRAKE_PRESSURE(BRAKE_PRESSURE: 0.0 bar)
 (1548862269.769293)  can0  0B9   [8]  00 04 00 00 00 00 00 00 :: Unknown frame id 185 (0xb9)
 (1548862269.771970)  can0  073   [8]  05 CC 00 00 00 2D 01 31 :: Unknown frame id 115 (0x73)
 (1548862269.776114)  can0  2B0   [8]  4D 00 00 07 0E 00 00 00 :: STEERING_ANGLE(STEERING_WHEEL_ANGLE: 7.7 degrees)
 (1548862269.777822)  can0  220   [8]  EB 03 03 04 00 00 3F 10 :: BRAKE_PRESSURE(BRAKE_PRESSURE: 0.0 bar)
 (1548862269.778826)  can0  4B0   [8]  00 00 00 00 00 00 00 00 :: WHEEL_SPEED(LEFT_FRONT: 0.0 kph, RIGHT_FRONT: 0.0 kph, LEFT_REAR: 0.0 kph, RIGHT_REAR: 0.0 kph)
 (1548862269.779878)  can0  083   [8]  05 CC 00 00 00 53 01 31 :: Unknown frame id 131 (0x83)
 (1548862269.782441)  can0  093   [8]  05 CC 00 00 00 0D 01 31 :: Unknown frame id 147 (0x93)
 (1548862269.786689)  can0  2B0   [8]  4E 00 00 07 2F 00 00 00 :: STEERING_ANGLE(STEERING_WHEEL_ANGLE: 7.800000000000001 degrees)
 (1548862269.788468)  can0  220   [8]  EB 03 06 04 00 00 3F 10 :: BRAKE_PRESSURE(BRAKE_PRESSURE: 0.0 bar)
 (1548862269.789490)  can0  0B9   [8]  00 04 00 00 00 00 00 00 :: Unknown frame id 185 (0xb9)
 (1548862269.791977)  can0  073   [8]  05 CC 00 00 00 2D 01 31 :: Unknown frame id 115 (0x73)
 (1548862269.796478)  can0  2B0   [8]  4F 00 00 07 C0 00 00 00 :: STEERING_ANGLE(STEERING_WHEEL_ANGLE: 7.9 degrees)
 (1548862269.798021)  can0  220   [8]  EB 03 07 04 00 00 3F 10 :: BRAKE_PRESSURE(BRAKE_PRESSURE: 0.0 bar)
 (1548862269.798993)  can0  4B0   [8]  00 00 00 00 00 00 00 00 :: WHEEL_SPEED(LEFT_FRONT: 0.0 kph, RIGHT_FRONT: 0.0 kph, LEFT_REAR: 0.0 kph, RIGHT_REAR: 0.0 kph)
 (1548862269.800020)  can0  083   [8]  05 CC 00 00 00 53 01 31 :: Unknown frame id 131 (0x83)
 (1548862269.802353)  can0  093   [8]  05 CC 00 00 00 0D 01 31 :: Unknown frame id 147 (0x93)
 (1548862269.806175)  can0  2B0   [8]  4D 00 00 07 F1 00 00 00 :: STEERING_ANGLE(STEERING_WHEEL_ANGLE: 7.7 degrees)
 (1548862269.808044)  can0  220   [8]  EA 03 05 04 00 00 3E 10 :: BRAKE_PRESSURE(BRAKE_PRESSURE: 0.0 bar)
 (1548862269.809524)  can0  0B9   [8]  00 04 00 00 00 00 00 00 :: Unknown frame id 185 (0xb9)
 (1548862269.811967)  can0  073   [8]  05 CC 00 00 00 31 F7 CF :: Unknown frame id 115 (0x73)
 (1548862269.816155)  can0  2B0   [8]  4D 00 00 07 C2 00 00 00 :: STEERING_ANGLE(STEERING_WHEEL_ANGLE: 7.7 degrees)
 (1548862269.817854)  can0  220   [8]  EA 03 04 04 00 00 3B 10 :: BRAKE_PRESSURE(BRAKE_PRESSURE: 0.0 bar)
 (1548862269.818882)  can0  4B0   [8]  00 00 00 00 00 00 00 00 :: WHEEL_SPEED(LEFT_FRONT: 0.0 kph, RIGHT_FRONT: 0.0 kph, LEFT_REAR: 0.0 kph, RIGHT_REAR: 0.0 kph)
 (1548862269.819875)  can0  083   [8]  05 CC 00 00 00 04 04 01 :: Unknown frame id 131 (0x83)
 (1548862269.822300)  can0  093   [8]  05 CC 00 00 00 61 64 23 :: Unknown frame id 147 (0x93)
 (1548862269.825994)  can0  2B0   [8]  4D 00 00 07 D3 00 00 00 :: STEERING_ANGLE(STEERING_WHEEL_ANGLE: 7.7 degrees)
 (1548862269.828013)  can0  220   [8]  EB 03 02 04 00 00 3B 10 :: BRAKE_PRESSURE(BRAKE_PRESSURE: 0.0 bar)
 (1548862269.829722)  can0  0B9   [8]  00 04 00 00 00 00 00 00 :: Unknown frame id 185 (0xb9)
 (1548862269.831943)  can0  073   [8]  05 CC 00 00 00 2D 01 31 :: Unknown frame id 115 (0x73)
 (1548862269.836093)  can0  2B0   [8]  4F 00 00 07 84 00 00 00 :: STEERING_ANGLE(STEERING_WHEEL_ANGLE: 7.9 degrees)
 (1548862269.837948)  can0  220   [8]  EB 03 01 04 00 00 3B 10 :: BRAKE_PRESSURE(BRAKE_PRESSURE: 0.0 bar)
 (1548862269.838977)  can0  4B0   [8]  00 00 00 00 00 00 00 00 :: WHEEL_SPEED(LEFT_FRONT: 0.0 kph, RIGHT_FRONT: 0.0 kph, LEFT_REAR: 0.0 kph, RIGHT_REAR: 0.0 kph)
 (1548862269.839972)  can0  083   [8]  05 CC 00 00 00 53 01 31 :: Unknown frame id 131 (0x83)
 (1548862269.842288)  can0  093   [8]  05 CC 00 00 00 23 08 9F :: Unknown frame id 147 (0x93)
 (1548862269.846181)  can0  2B0   [8]  4D 00 00 07 B5 00 00 00 :: STEERING_ANGLE(STEERING_WHEEL_ANGLE: 7.7 degrees)
 (1548862269.848104)  can0  220   [8]  EB 03 02 04 00 00 3B 10 :: BRAKE_PRESSURE(BRAKE_PRESSURE: 0.0 bar)
 (1548862269.849770)  can0  0B9   [8]  00 04 00 00 00 00 00 00 :: Unknown frame id 185 (0xb9)
 (1548862269.851944)  can0  073   [8]  05 CC 00 00 00 2D 01 31 :: Unknown frame id 115 (0x73)
 (1548862269.856149)  can0  2B0   [8]  4F 00 00 07 A6 00 00 00 :: STEERING_ANGLE(STEERING_WHEEL_ANGLE: 7.9 degrees)
 (1548862269.857847)  can0  220   [8]  EA 03 03 04 00 00 3B 10 :: BRAKE_PRESSURE(BRAKE_PRESSURE: 0.0 bar)
 (1548862269.858851)  can0  4B0   [8]  00 00 00 00 00 00 00 00 :: WHEEL_SPEED(LEFT_FRONT: 0.0 kph, RIGHT_FRONT: 0.0 kph, LEFT_REAR: 0.0 kph, RIGHT_REAR: 0.0 kph)
 (1548862269.859870)  can0  083   [8]  05 CC 00 00 00 53 01 31 :: Unknown frame id 131 (0x83)
 (1548862269.862269)  can0  093   [8]  05 CC 00 00 00 0D 01 31 :: Unknown frame id 147 (0x93)
 (1548862269.866019)  can0  2B0   [8]  4D 00 00 07 97 00 00 00 :: STEERING_ANGLE(STEERING_WHEEL_ANGLE: 7.7 degrees)
 (1548862269.868170)  can0  220   [8]  E8 03 04 04 00 00 38 10 :: BRAKE_PRESSURE(BRAKE_PRESSURE: 0.0 bar)
 (1548862269.869869)  can0  0B9   [8]  00 04 00 00 00 00 00 00 :: Unknown frame id 185 (0xb9)
 (1548862269.871912)  can0  073   [8]  05 CC 00 00 00 2D 01 31 :: Unknown frame id 115 (0x73)
 (1548862269.876024)  can0  2B0   [8]  50 00 00 07 A8 00 00 00 :: STEERING_ANGLE(STEERING_WHEEL_ANGLE: 8.0 degrees)
 (1548862269.877945)  can0  220   [8]  E7 03 06 04 00 00 36 10 :: BRAKE_PRESSURE(BRAKE_PRESSURE: 0.0 bar)
 (1548862269.878970)  can0  4B0   [8]  00 00 00 00 00 00 00 00 :: WHEEL_SPEED(LEFT_FRONT: 0.0 kph, RIGHT_FRONT: 0.0 kph, LEFT_REAR: 0.0 kph, RIGHT_REAR: 0.0 kph)
 (1548862269.879970)  can0  083   [8]  05 CC 00 00 00 00 00 00 :: Unknown frame id 131 (0x83)
 (1548862269.882296)  can0  093   [8]  05 CC 00 00 00 0D 01 31 :: Unknown frame id 147 (0x93)
 (1548862269.886365)  can0  2B0   [8]  4D 00 00 07 79 00 00 00 :: STEERING_ANGLE(STEERING_WHEEL_ANGLE: 7.7 degrees)
 (1548862269.888296)  can0  220   [8]  E8 03 07 04 00 00 36 10 :: BRAKE_PRESSURE(BRAKE_PRESSURE: 0.0 bar)
 (1548862269.889995)  can0  0B9   [8]  00 04 00 00 00 00 00 00 :: Unknown frame id 185 (0xb9)
 (1548862269.891924)  can0  073   [8]  05 CC 00 00 00 F7 CF 08 :: Unknown frame id 115 (0x73)
 (1548862269.896370)  can0  2B0   [8]  4F 00 00 07 6A 00 00 00 :: STEERING_ANGLE(STEERING_WHEEL_ANGLE: 7.9 degrees)
 (1548862269.897848)  can0  220   [8]  EA 03 07 04 00 00 3A 10 :: BRAKE_PRESSURE(BRAKE_PRESSURE: 0.0 bar)
 (1548862269.898852)  can0  4B0   [8]  00 00 00 00 00 00 00 00 :: WHEEL_SPEED(LEFT_FRONT: 0.0 kph, RIGHT_FRONT: 0.0 kph, LEFT_REAR: 0.0 kph, RIGHT_REAR: 0.0 kph)
 (1548862269.899870)  can0  083   [8]  05 CC 00 00 00 53 01 31 :: Unknown frame id 131 (0x83)
 (1548862269.902267)  can0  093   [8]  05 CC 00 00 00 0D 01 31 :: Unknown frame id 147 (0x93)
 (1548862269.906046)  can0  2B0   [8]  51 00 00 07 8B 00 00 00 :: STEERING_ANGLE(STEERING_WHEEL_ANGLE: 8.1 degrees)
 (1548862269.908190)  can0  220   [8]  EA 03 06 04 00 00 3F 10 :: BRAKE_PRESSURE(BRAKE_PRESSURE: 0.0 bar)
 (1548862269.910122)  can0  0B9   [8]  00 04 00 00 00 00 00 00 :: Unknown frame id 185 (0xb9)
 (1548862269.911945)  can0  073   [8]  05 CC 00 00 00 2D 01 31 :: Unknown frame id 115 (0x73)
 (1548862269.916042)  can0  2B0   [8]  50 00 00 07 EC 00 00 00 :: STEERING_ANGLE(STEERING_WHEEL_ANGLE: 8.0 degrees)
 (1548862269.917952)  can0  220   [8]  EA 03 06 04 00 00 3B 10 :: BRAKE_PRESSURE(BRAKE_PRESSURE: 0.0 bar)
 (1548862269.918975)  can0  4B0   [8]  00 00 00 00 00 00 00 00 :: WHEEL_SPEED(LEFT_FRONT: 0.0 kph, RIGHT_FRONT: 0.0 kph, LEFT_REAR: 0.0 kph, RIGHT_REAR: 0.0 kph)
 (1548862269.920041)  can0  083   [8]  05 CC 00 00 00 53 01 31 :: Unknown frame id 131 (0x83)
 (1548862269.922318)  can0  093   [8]  05 CC 00 00 00 0D 01 31 :: Unknown frame id 147 (0x93)
 (1548862269.926374)  can0  2B0   [8]  4D 00 00 07 3D 00 00 00 :: STEERING_ANGLE(STEERING_WHEEL_ANGLE: 7.7 degrees)
 (1548862269.928136)  can0  220   [8]  E9 03 05 04 00 00 38 10 :: BRAKE_PRESSURE(BRAKE_PRESSURE: 0.0 bar)
 (1548862269.930224)  can0  0B9   [8]  00 04 00 00 00 00 00 00 :: Unknown frame id 185 (0xb9)
 (1548862269.931921)  can0  073   [8]  05 CC 00 00 00 2D 01 31 :: Unknown frame id 115 (0x73)
 (1548862269.936176)  can0  2B0   [8]  4E 00 00 07 3E 00 00 00 :: STEERING_ANGLE(STEERING_WHEEL_ANGLE: 7.800000000000001 degrees)
 (1548862269.937819)  can0  220   [8]  E9 03 04 04 00 00 38 10 :: BRAKE_PRESSURE(BRAKE_PRESSURE: 0.0 bar)
 (1548862269.938817)  can0  4B0   [8]  00 00 00 00 00 00 00 00 :: WHEEL_SPEED(LEFT_FRONT: 0.0 kph, RIGHT_FRONT: 0.0 kph, LEFT_REAR: 0.0 kph, RIGHT_REAR: 0.0 kph)
 (1548862269.939849)  can0  083   [8]  05 CC 00 00 00 53 01 31 :: Unknown frame id 131 (0x83)
 (1548862269.942298)  can0  093   [8]  05 CC 00 00 00 0D 01 31 :: Unknown frame id 147 (0x93)
 (1548862269.945992)  can0  2B0   [8]  4D 00 00 07 1F 00 00 00 :: STEERING_ANGLE(STEERING_WHEEL_ANGLE: 7.7 degrees)
 (1548862269.948025)  can0  220   [8]  EB 03 04 04 00 00 38 10 :: BRAKE_PRESSURE(BRAKE_PRESSURE: 0.0 bar)
 (1548862269.950397)  can0  0B9   [8]  00 04 00 00 00 00 00 00 :: Unknown frame id 185 (0xb9)
 (1548862269.951893)  can0  073   [8]  05 CC 00 00 00 CF 08 9F :: Unknown frame id 115 (0x73)
 (1548862269.956102)  can0  2B0   [8]  50 00 00 07 20 00 00 00 :: STEERING_ANGLE(STEERING_WHEEL_ANGLE: 8.0 degrees)
 (1548862269.957971)  can0  220   [8]  EC 03 03 04 00 00 38 10 :: BRAKE_PRESSURE(BRAKE_PRESSURE: 0.0 bar)
 (1548862269.958995)  can0  4B0   [8]  00 00 00 00 00 00 00 00 :: WHEEL_SPEED(LEFT_FRONT: 0.0 kph, RIGHT_FRONT: 0.0 kph, LEFT_REAR: 0.0 kph, RIGHT_REAR: 0.0 kph)
 (1548862269.959995)  can0  083   [8]  05 CC 00 00 00 53 01 31 :: Unknown frame id 131 (0x83)
 (1548862269.962273)  can0  093   [8]  05 CC 00 00 00 0D 01 31 :: Unknown frame id 147 (0x93)
 (1548862269.966169)  can0  2B0   [8]  4D 00 00 07 F1 00 00 00 :: STEERING_ANGLE(STEERING_WHEEL_ANGLE: 7.7 degrees)
 (1548862269.968103)  can0  220   [8]  ED 03 02 04 00 00 38 10 :: BRAKE_PRESSURE(BRAKE_PRESSURE: 0.0 bar)
 (1548862269.970483)  can0  0B9   [8]  00 04 00 00 00 00 00 00 :: Unknown frame id 185 (0xb9)
 (1548862269.971919)  can0  073   [8]  05 CC 00 00 00 2D 01 31 :: Unknown frame id 115 (0x73)
 (1548862269.975976)  can0  2B0   [8]  4D 00 00 07 C2 00 00 00 :: STEERING_ANGLE(STEERING_WHEEL_ANGLE: 7.7 degrees)
 (1548862269.977851)  can0  220   [8]  ED 03 02 04 00 00 38 10 :: BRAKE_PRESSURE(BRAKE_PRESSURE: 0.0 bar)
 (1548862269.978851)  can0  4B0   [8]  00 00 00 00 00 00 00 00 :: WHEEL_SPEED(LEFT_FRONT: 0.0 kph, RIGHT_FRONT: 0.0 kph, LEFT_REAR: 0.0 kph, RIGHT_REAR: 0.0 kph)
 (1548862269.979926)  can0  083   [8]  05 CC 00 00 00 53 01 31 :: Unknown frame id 131 (0x83)
 (1548862269.982243)  can0  093   [8]  05 CC 00 00 00 04 04 01 :: Unknown frame id 147 (0x93)
 (1548862269.986679)  can0  2B0   [8]  4D 00 00 07 D3 00 00 00 :: STEERING_ANGLE(STEERING_WHEEL_ANGLE: 7.7 degrees)
 (1548862269.988245)  can0  220   [8]  ED 03 04 04 00 00 38 10 :: BRAKE_PRESSURE(BRAKE_PRESSURE: 0.0 bar)
 (1548862269.990625)  can0  0B9   [8]  00 04 00 00 00 00 00 00 :: Unknown frame id 185 (0xb9)
 (1548862269.991926)  can0  073   [8]  05 CC 00 00 00 2D 01 31 :: Unknown frame id 115 (0x73)
 (1548862269.996542)  can0  2B0   [8]  4F 00 00 07 84 00 00 00 :: STEERING_ANGLE(STEERING_WHEEL_ANGLE: 7.9 degrees)
 (1548862269.997973)  can0  220   [8]  ED 03 06 04 00 00 38 10 :: BRAKE_PRESSURE(BRAKE_PRESSURE: 0.0 bar)
 (1548862269.999004)  can0  4B0   [8]  00 00 00 00 00 00 00 00 :: WHEEL_SPEED(LEFT_FRONT: 0.0 kph, RIGHT_FRONT: 0.0 kph, LEFT_REAR: 0.0 kph, RIGHT_REAR: 0.0 kph)
 (1548862270.000019)  can0  083   [8]  05 CC 00 00 00 00 00 00 :: Unknown frame id 131 (0x83)
 (1548862270.002330)  can0  093   [8]  05 CC 00 00 00 0D 01 31 :: Unknown frame id 147 (0x93)
 (1548862270.006152)  can0  2B0   [8]  4D 00 00 07 B5 00 00 00 :: STEERING_ANGLE(STEERING_WHEEL_ANGLE: 7.7 degrees)
 (1548862270.008070)  can0  220   [8]  EC 03 06 04 00 00 38 10 :: BRAKE_PRESSURE(BRAKE_PRESSURE: 0.0 bar)
 (1548862270.010723)  can0  0B9   [8]  00 04 00 00 00 00 00 00 :: Unknown frame id 185 (0xb9)
 (1548862270.011893)  can0  073   [8]  05 CC 00 00 00 2D 01 31 :: Unknown frame id 115 (0x73)
 (1548862270.015922)  can0  2B0   [8]  4D 00 00 07 86 00 00 00 :: STEERING_ANGLE(STEERING_WHEEL_ANGLE: 7.7 degrees)
 (1548862270.017856)  can0  220   [8]  EC 03 04 04 00 00 38 10 :: BRAKE_PRESSURE(BRAKE_PRESSURE: 0.0 bar)
 (1548862270.018819)  can0  4B0   [8]  00 00 00 00 00 00 00 00 :: WHEEL_SPEED(LEFT_FRONT: 0.0 kph, RIGHT_FRONT: 0.0 kph, LEFT_REAR: 0.0 kph, RIGHT_REAR: 0.0 kph)
 (1548862270.019824)  can0  083   [8]  05 CC 00 00 00 53 01 31 :: Unknown frame id 131 (0x83)
 (1548862270.022277)  can0  093   [8]  05 CC 00 00 00 0D 01 31 :: Unknown frame id 147 (0x93)
 (1548862270.025996)  can0  2B0   [8]  50 00 00 07 57 00 00 00 :: STEERING_ANGLE(STEERING_WHEEL_ANGLE: 8.0 degrees)
 (1548862270.028102)  can0  220   [8]  EB 03 04 04 00 00 38 10 :: BRAKE_PRESSURE(BRAKE_PRESSURE: 0.0 bar)
 (1548862270.030697)  can0  0B9   [8]  00 04 00 00 00 00 00 00 :: Unknown frame id 185 (0xb9)
 (1548862270.031957)  can0  073   [8]  05 CC 00 00 00 08 9F 0A :: Unknown frame id 115 (0x73)
 (1548862270.036179)  can0  2B0   [8]  4D 00 00 07 68 00 00 00 :: STEERING_ANGLE(STEERING_WHEEL_ANGLE: 7.7 degrees)
 (1548862270.037871)  can0  220   [8]  EB 03 05 04 00 00 38 10 :: BRAKE_PRESSURE(BRAKE_PRESSURE: 0.0 bar)
 (1548862270.039001)  can0  4B0   [8]  00 00 00 00 00 00 00 00 :: WHEEL_SPEED(LEFT_FRONT: 0.0 kph, RIGHT_FRONT: 0.0 kph, LEFT_REAR: 0.0 kph, RIGHT_REAR: 0.0 kph)
 (1548862270.039961)  can0  083   [8]  05 CC 00 00 00 0B 17 00 :: Unknown frame id 131 (0x83)
 (1548862270.042260)  can0  093   [8]  05 CC 00 00 00 0D 01 31 :: Unknown frame id 147 (0x93)
 (1548862270.046149)  can0  2B0   [8]  4E 00 00 07 49 00 00 00 :: STEERING_ANGLE(STEERING_WHEEL_ANGLE: 7.800000000000001 degrees)
 (1548862270.048183)  can0  220   [8]  EB 03 04 04 00 00 38 10 :: BRAKE_PRESSURE(BRAKE_PRESSURE: 0.0 bar)
 (1548862270.050808)  can0  0B9   [8]  00 04 00 00 00 00 00 00 :: Unknown frame id 185 (0xb9)
 (1548862270.051897)  can0  073   [8]  05 CC 00 00 00 2D 01 31 :: Unknown frame id 115 (0x73)
 (1548862270.056021)  can0  2B0   [8]  4D 00 00 07 4A 00 00 00 :: STEERING_ANGLE(STEERING_WHEEL_ANGLE: 7.7 degrees)
 (1548862270.057824)  can0  220   [8]  EB 03 03 04 00 00 38 10 :: BRAKE_PRESSURE(BRAKE_PRESSURE: 0.0 bar)
 (1548862270.058827)  can0  4B0   [8]  00 00 00 00 00 00 00 00 :: WHEEL_SPEED(LEFT_FRONT: 0.0 kph, RIGHT_FRONT: 0.0 kph, LEFT_REAR: 0.0 kph, RIGHT_REAR: 0.0 kph)
 (1548862270.059849)  can0  083   [8]  05 CC 00 00 00 53 01 31 :: Unknown frame id 131 (0x83)
 (1548862270.062278)  can0  093   [8]  05 CC 00 00 00 E0 0B 13 :: Unknown frame id 147 (0x93)
 (1548862270.066000)  can0  2B0   [8]  4D 00 00 07 5B 00 00 00 :: STEERING_ANGLE(STEERING_WHEEL_ANGLE: 7.7 degrees)
 (1548862270.068255)  can0  220   [8]  EB 03 03 04 00 00 38 10 :: BRAKE_PRESSURE(BRAKE_PRESSURE: 0.0 bar)
 (1548862270.070850)  can0  0B9   [8]  00 04 00 00 00 00 00 00 :: Unknown frame id 185 (0xb9)
 (1548862270.071895)  can0  073   [8]  05 CC 00 00 00 2D 01 31 :: Unknown frame id 115 (0x73)
 (1548862270.076127)  can0  2B0   [8]  4D 00 00 07 2C 00 00 00 :: STEERING_ANGLE(STEERING_WHEEL_ANGLE: 7.7 degrees)
 (1548862270.077898)  can0  220   [8]  EB 03 03 04 00 00 38 10 :: BRAKE_PRESSURE(BRAKE_PRESSURE: 0.0 bar)
 (1548862270.078925)  can0  4B0   [8]  00 00 00 00 00 00 00 00 :: WHEEL_SPEED(LEFT_FRONT: 0.0 kph, RIGHT_FRONT: 0.0 kph, LEFT_REAR: 0.0 kph, RIGHT_REAR: 0.0 kph)
 (1548862270.079922)  can0  083   [8]  05 CC 00 00 00 53 01 31 :: Unknown frame id 131 (0x83)
 (1548862270.082272)  can0  093   [8]  05 CC 00 00 00 0D 01 31 :: Unknown frame id 147 (0x93)
 (1548862270.086101)  can0  2B0   [8]  50 00 00 07 FD 00 00 00 :: STEERING_ANGLE(STEERING_WHEEL_ANGLE: 8.0 degrees)
 (1548862270.088425)  can0  220   [8]  EA 03 04 04 00 00 3A 10 :: BRAKE_PRESSURE(BRAKE_PRESSURE: 0.0 bar)
 (1548862270.091004)  can0  0B9   [8]  00 04 00 00 00 00 00 00 :: Unknown frame id 185 (0xb9)
 (1548862270.092019)  can0  073   [8]  05 CC 00 00 00 04 04 01 :: Unknown frame id 115 (0x73)
 (1548862270.096528)  can0  2B0   [8]  4E 00 00 07 3E 00 00 00 :: STEERING_ANGLE(STEERING_WHEEL_ANGLE: 7.800000000000001 degrees)
 (1548862270.097977)  can0  220   [8]  E9 03 04 04 00 00 3D 10 :: BRAKE_PRESSURE(BRAKE_PRESSURE: 0.0 bar)
 (1548862270.098994)  can0  4B0   [8]  00 00 00 00 00 00 00 00 :: WHEEL_SPEED(LEFT_FRONT: 0.0 kph, RIGHT_FRONT: 0.0 kph, LEFT_REAR: 0.0 kph, RIGHT_REAR: 0.0 kph)
 (1548862270.099993)  can0  083   [8]  05 CC 00 00 00 53 01 31 :: Unknown frame id 131 (0x83)
 (1548862270.102250)  can0  093   [8]  05 CC 00 00 00 0D 01 31 :: Unknown frame id 147 (0x93)
 (1548862270.106007)  can0  2B0   [8]  4D 00 00 07 1F 00 00 00 :: STEERING_ANGLE(STEERING_WHEEL_ANGLE: 7.7 degrees)
 (1548862270.108077)  can0  220   [8]  EB 03 05 04 00 00 3E 10 :: BRAKE_PRESSURE(BRAKE_PRESSURE: 0.0 bar)
 (1548862270.111138)  can0  0B9   [8]  00 04 00 00 00 00 00 00 :: Unknown frame id 185 (0xb9)
 (1548862270.112180)  can0  073   [8]  05 CC 00 00 00 2D 01 31 :: Unknown frame id 115 (0x73)
 (1548862270.116130)  can0  2B0   [8]  4D 00 00 07 E0 00 00 00 :: STEERING_ANGLE(STEERING_WHEEL_ANGLE: 7.7 degrees)
 (1548862270.118044)  can0  220   [8]  EC 03 06 04 00 00 3E 10 :: BRAKE_PRESSURE(BRAKE_PRESSURE: 0.0 bar)
 (1548862270.119008)  can0  4B0   [8]  00 00 00 00 00 00 00 00 :: WHEEL_SPEED(LEFT_FRONT: 0.0 kph, RIGHT_FRONT: 0.0 kph, LEFT_REAR: 0.0 kph, RIGHT_REAR: 0.0 kph)
 (1548862270.120009)  can0  083   [8]  05 CC 00 00 00 00 00 00 :: Unknown frame id 131 (0x83)
 (1548862270.122251)  can0  093   [8]  05 CC 00 00 00 0D 01 31 :: Unknown frame id 147 (0x93)
 (1548862270.126184)  can0  2B0   [8]  4D 00 00 07 F1 00 00 00 :: STEERING_ANGLE(STEERING_WHEEL_ANGLE: 7.7 degrees)
 (1548862270.128157)  can0  220   [8]  EC 03 06 04 00 00 3E 10 :: BRAKE_PRESSURE(BRAKE_PRESSURE: 0.0 bar)
 (1548862270.131203)  can0  0B9   [8]  00 04 00 00 00 00 00 00 :: Unknown frame id 185 (0xb9)
 (1548862270.132199)  can0  073   [8]  05 CC 00 00 00 2D 01 31 :: Unknown frame id 115 (0x73)
 (1548862270.135992)  can0  2B0   [8]  4D 00 00 07 C2 00 00 00 :: STEERING_ANGLE(STEERING_WHEEL_ANGLE: 7.7 degrees)
 (1548862270.137807)  can0  220   [8]  EC 03 05 04 00 00 3E 10 :: BRAKE_PRESSURE(BRAKE_PRESSURE: 0.0 bar)
 (1548862270.138830)  can0  4B0   [8]  00 00 00 00 00 00 00 00 :: WHEEL_SPEED(LEFT_FRONT: 0.0 kph, RIGHT_FRONT: 0.0 kph, LEFT_REAR: 0.0 kph, RIGHT_REAR: 0.0 kph)
 (1548862270.139876)  can0  083   [8]  05 CC 00 00 00 53 01 31 :: Unknown frame id 131 (0x83)
 (1548862270.142282)  can0  093   [8]  05 CC 00 00 00 0D 01 31 :: Unknown frame id 147 (0x93)
 (1548862270.146215)  can0  2B0   [8]  4E 00 00 07 E3 00 00 00 :: STEERING_ANGLE(STEERING_WHEEL_ANGLE: 7.800000000000001 degrees)
 (1548862270.148227)  can0  220   [8]  EC 03 04 04 00 00 3E 10 :: BRAKE_PRESSURE(BRAKE_PRESSURE: 0.0 bar)
 (1548862270.151273)  can0  0B9   [8]  00 04 00 00 00 00 00 00 :: Unknown frame id 185 (0xb9)
 (1548862270.152274)  can0  073   [8]  05 CC 00 00 00 2D 01 31 :: Unknown frame id 115 (0x73)
 (1548862270.156103)  can0  2B0   [8]  4E 00 00 07 94 00 00 00 :: STEERING_ANGLE(STEERING_WHEEL_ANGLE: 7.800000000000001 degrees)
 (1548862270.157893)  can0  220   [8]  EC 03 04 04 00 00 3E 10 :: BRAKE_PRESSURE(BRAKE_PRESSURE: 0.0 bar)
 (1548862270.158892)  can0  4B0   [8]  00 00 00 00 00 00 00 00 :: WHEEL_SPEED(LEFT_FRONT: 0.0 kph, RIGHT_FRONT: 0.0 kph, LEFT_REAR: 0.0 kph, RIGHT_REAR: 0.0 kph)
 (1548862270.159899)  can0  083   [8]  05 CC 00 00 00 53 01 31 :: Unknown frame id 131 (0x83)
 (1548862270.162251)  can0  093   [8]  05 CC 00 00 00 0D 01 31 :: Unknown frame id 147 (0x93)
 (1548862270.166102)  can0  2B0   [8]  4D 00 00 07 B5 00 00 00 :: STEERING_ANGLE(STEERING_WHEEL_ANGLE: 7.7 degrees)
 (1548862270.168154)  can0  220   [8]  EB 03 05 04 00 00 3E 10 :: BRAKE_PRESSURE(BRAKE_PRESSURE: 0.0 bar)
 (1548862270.171431)  can0  0B9   [8]  00 04 00 00 00 00 00 00 :: Unknown frame id 185 (0xb9)
 (1548862270.172373)  can0  073   [8]  05 CC 00 00 00 E0 0B 8A :: Unknown frame id 115 (0x73)
 (1548862270.176319)  can0  2B0   [8]  4D 00 00 07 86 00 00 00 :: STEERING_ANGLE(STEERING_WHEEL_ANGLE: 7.7 degrees)
 (1548862270.178120)  can0  220   [8]  EA 03 06 04 00 00 3E 10 :: BRAKE_PRESSURE(BRAKE_PRESSURE: 0.0 bar)
 (1548862270.179053)  can0  4B0   [8]  00 00 00 00 00 00 00 00 :: WHEEL_SPEED(LEFT_FRONT: 0.0 kph, RIGHT_FRONT: 0.0 kph, LEFT_REAR: 0.0 kph, RIGHT_REAR: 0.0 kph)
 (1548862270.180027)  can0  083   [8]  05 CC 00 00 00 53 01 31 :: Unknown frame id 131 (0x83)
 (1548862270.182228)  can0  093   [8]  05 CC 00 00 00 0D 01 31 :: Unknown frame id 147 (0x93)
 (1548862270.186452)  can0  2B0   [8]  50 00 00 07 57 00 00 00 :: STEERING_ANGLE(STEERING_WHEEL_ANGLE: 8.0 degrees)
 (1548862270.188293)  can0  220   [8]  EA 03 07 04 00 00 3E 10 :: BRAKE_PRESSURE(BRAKE_PRESSURE: 0.0 bar)
 (1548862270.191630)  can0  0B9   [8]  00 04 00 00 00 00 00 00 :: Unknown frame id 185 (0xb9)
 (1548862270.192693)  can0  073   [8]  05 CC 00 00 00 2D 01 31 :: Unknown frame id 115 (0x73)
 (1548862270.196394)  can0  2B0   [8]  4D 00 00 07 68 00 00 00 :: STEERING_ANGLE(STEERING_WHEEL_ANGLE: 7.7 degrees)
 (1548862270.197852)  can0  220   [8]  EB 03 07 04 00 00 3E 10 :: BRAKE_PRESSURE(BRAKE_PRESSURE: 0.0 bar)
 (1548862270.198930)  can0  4B0   [8]  00 00 00 00 00 00 00 00 :: WHEEL_SPEED(LEFT_FRONT: 0.0 kph, RIGHT_FRONT: 0.0 kph, LEFT_REAR: 0.0 kph, RIGHT_REAR: 0.0 kph)
 (1548862270.199909)  can0  083   [8]  05 CC 00 00 00 53 01 31 :: Unknown frame id 131 (0x83)
 (1548862270.202234)  can0  093   [8]  05 CC 00 00 00 00 00 00 :: Unknown frame id 147 (0x93)
 (1548862270.206056)  can0  2B0   [8]  4E 00 00 07 49 00 00 00 :: STEERING_ANGLE(STEERING_WHEEL_ANGLE: 7.800000000000001 degrees)
 (1548862270.208231)  can0  220   [8]  E9 03 06 04 00 00 3D 10 :: BRAKE_PRESSURE(BRAKE_PRESSURE: 0.0 bar)
 (1548862270.211660)  can0  0B9   [8]  00 04 00 00 00 00 00 00 :: Unknown frame id 185 (0xb9)
 (1548862270.212650)  can0  073   [8]  05 CC 00 00 00 2D 01 31 :: Unknown frame id 115 (0x73)
 (1548862270.216024)  can0  2B0   [8]  4D 00 00 07 4A 00 00 00 :: STEERING_ANGLE(STEERING_WHEEL_ANGLE: 7.7 degrees)
 (1548862270.218026)  can0  220   [8]  E9 03 06 04 00 00 3A 10 :: BRAKE_PRESSURE(BRAKE_PRESSURE: 0.0 bar)
 (1548862270.219055)  can0  4B0   [8]  00 00 00 00 00 00 00 00 :: WHEEL_SPEED(LEFT_FRONT: 0.0 kph, RIGHT_FRONT: 0.0 kph, LEFT_REAR: 0.0 kph, RIGHT_REAR: 0.0 kph)
 (1548862270.220084)  can0  083   [8]  05 CC 00 00 00 A2 9A 08 :: Unknown frame id 131 (0x83)
 (1548862270.222286)  can0  093   [8]  05 CC 00 00 00 0D 01 31 :: Unknown frame id 147 (0x93)
 (1548862270.226235)  can0  2B0   [8]  4E 00 00 07 6B 00 00 00 :: STEERING_ANGLE(STEERING_WHEEL_ANGLE: 7.800000000000001 degrees)
 (1548862270.228228)  can0  220   [8]  EA 03 07 04 00 00 3A 10 :: BRAKE_PRESSURE(BRAKE_PRESSURE: 0.0 bar)
 (1548862270.231749)  can0  0B9   [8]  00 04 00 00 00 00 00 00 :: Unknown frame id 185 (0xb9)
 (1548862270.232751)  can0  073   [8]  05 CC 00 00 00 2D 01 31 :: Unknown frame id 115 (0x73)
 (1548862270.236125)  can0  2B0   [8]  4F 00 00 07 0C 00 00 00 :: STEERING_ANGLE(STEERING_WHEEL_ANGLE: 7.9 degrees)
 (1548862270.237902)  can0  220   [8]  EA 03 07 04 00 00 3A 10 :: BRAKE_PRESSURE(BRAKE_PRESSURE: 0.0 bar)
 (1548862270.238926)  can0  4B0   [8]  00 00 00 00 00 00 00 00 :: WHEEL_SPEED(LEFT_FRONT: 0.0 kph, RIGHT_FRONT: 0.0 kph, LEFT_REAR: 0.0 kph, RIGHT_REAR: 0.0 kph)
 (1548862270.239926)  can0  083   [8]  05 CC 00 00 00 9C A2 9A :: Unknown frame id 131 (0x83)
 (1548862270.242232)  can0  093   [8]  05 CC 00 00 00 0D 01 31 :: Unknown frame id 147 (0x93)
 (1548862270.246107)  can0  2B0   [8]  4D 00 00 07 3D 00 00 00 :: STEERING_ANGLE(STEERING_WHEEL_ANGLE: 7.7 degrees)
 (1548862270.248179)  can0  220   [8]  EB 03 05 04 00 00 3A 10 :: BRAKE_PRESSURE(BRAKE_PRESSURE: 0.0 bar)
 (1548862270.251881)  can0  073   [8]  05 CC 00 00 00 2D 01 31 :: Unknown frame id 115 (0x73)
 (1548862270.252896)  can0  0B9   [8]  00 04 00 00 00 00 00 00 :: Unknown frame id 185 (0xb9)
 (1548862270.256050)  can0  2B0   [8]  50 00 00 07 CE 00 00 00 :: STEERING_ANGLE(STEERING_WHEEL_ANGLE: 8.0 degrees)
 (1548862270.257977)  can0  220   [8]  EB 03 05 04 00 00 3A 10 :: BRAKE_PRESSURE(BRAKE_PRESSURE: 0.0 bar)
 (1548862270.259004)  can0  4B0   [8]  00 00 00 00 00 00 00 00 :: WHEEL_SPEED(LEFT_FRONT: 0.0 kph, RIGHT_FRONT: 0.0 kph, LEFT_REAR: 0.0 kph, RIGHT_REAR: 0.0 kph)
 (1548862270.260065)  can0  083   [8]  05 CC 00 00 00 53 01 31 :: Unknown frame id 131 (0x83)
 (1548862270.262200)  can0  093   [8]  05 CC 00 00 00 0D 01 31 :: Unknown frame id 147 (0x93)
 (1548862270.266154)  can0  2B0   [8]  4D 00 00 07 1F 00 00 00 :: STEERING_ANGLE(STEERING_WHEEL_ANGLE: 7.7 degrees)
 (1548862270.268106)  can0  220   [8]  EB 03 05 04 00 00 3A 10 :: BRAKE_PRESSURE(BRAKE_PRESSURE: 0.0 bar)
 (1548862270.271875)  can0  073   [8]  05 CC 00 00 00 2D 01 31 :: Unknown frame id 115 (0x73)
 (1548862270.272874)  can0  0B9   [8]  00 04 00 00 00 00 00 00 :: Unknown frame id 185 (0xb9)
 (1548862270.276025)  can0  2B0   [8]  4D 00 00 07 E0 00 00 00 :: STEERING_ANGLE(STEERING_WHEEL_ANGLE: 7.7 degrees)
 (1548862270.277926)  can0  220   [8]  EA 03 05 04 00 00 3A 10 :: BRAKE_PRESSURE(BRAKE_PRESSURE: 0.0 bar)
 (1548862270.278954)  can0  4B0   [8]  00 00 00 00 00 00 00 00 :: WHEEL_SPEED(LEFT_FRONT: 0.0 kph, RIGHT_FRONT: 0.0 kph, LEFT_REAR: 0.0 kph, RIGHT_REAR: 0.0 kph)
 (1548862270.280074)  can0  083   [8]  05 CC 00 00 00 53 01 31 :: Unknown frame id 131 (0x83)
 (1548862270.282271)  can0  093   [8]  05 CC 00 00 00 0D 01 31 :: Unknown frame id 147 (0x93)
 (1548862270.286363)  can0  2B0   [8]  4D 00 00 07 F1 00 00 00 :: STEERING_ANGLE(STEERING_WHEEL_ANGLE: 7.7 degrees)
 (1548862270.288353)  can0  220   [8]  EA 03 05 04 00 00 3A 10 :: BRAKE_PRESSURE(BRAKE_PRESSURE: 0.0 bar)
 (1548862270.291868)  can0  073   [8]  05 CC 00 00 00 0A E0 0B :: Unknown frame id 115 (0x73)
 (1548862270.292852)  can0  0B9   [8]  00 04 00 00 00 00 00 00 :: Unknown frame id 185 (0xb9)
 (1548862270.296515)  can0  2B0   [8]  4D 00 00 07 C2 00 00 00 :: STEERING_ANGLE(STEERING_WHEEL_ANGLE: 7.7 degrees)
 (1548862270.298025)  can0  220   [8]  E9 03 05 04 00 00 3A 10 :: BRAKE_PRESSURE(BRAKE_PRESSURE: 0.0 bar)
 (1548862270.299051)  can0  4B0   [8]  00 00 00 00 00 00 00 00 :: WHEEL_SPEED(LEFT_FRONT: 0.0 kph, RIGHT_FRONT: 0.0 kph, LEFT_REAR: 0.0 kph, RIGHT_REAR: 0.0 kph)
 (1548862270.300049)  can0  083   [8]  05 CC 00 00 00 53 01 31 :: Unknown frame id 131 (0x83)
 (1548862270.302283)  can0  093   [8]  05 CC 00 00 00 0D 01 31 :: Unknown frame id 147 (0x93)
 (1548862270.306010)  can0  2B0   [8]  4F 00 00 07 F3 00 00 00 :: STEERING_ANGLE(STEERING_WHEEL_ANGLE: 7.9 degrees)
 (1548862270.308111)  can0  220   [8]  E8 03 05 04 00 00 3B 10 :: BRAKE_PRESSURE(BRAKE_PRESSURE: 0.0 bar)
 (1548862270.311857)  can0  073   [8]  05 CC 00 00 00 2D 01 31 :: Unknown frame id 115 (0x73)
 (1548862270.312857)  can0  0B9   [8]  00 04 00 00 00 00 00 00 :: Unknown frame id 185 (0xb9)
 (1548862270.316176)  can0  2B0   [8]  4D 00 00 07 A4 00 00 00 :: STEERING_ANGLE(STEERING_WHEEL_ANGLE: 7.7 degrees)
 (1548862270.317903)  can0  220   [8]  E8 03 06 04 00 00 3E 10 :: BRAKE_PRESSURE(BRAKE_PRESSURE: 0.0 bar)
 (1548862270.318934)  can0  4B0   [8]  00 00 00 00 00 00 00 00 :: WHEEL_SPEED(LEFT_FRONT: 0.0 kph, RIGHT_FRONT: 0.0 kph, LEFT_REAR: 0.0 kph, RIGHT_REAR: 0.0 kph)
 (1548862270.319901)  can0  083   [8]  05 CC 00 00 00 01 31 08 :: Unknown frame id 131 (0x83)
 (1548862270.322254)  can0  093   [8]  05 CC 00 00 00 0D 01 31 :: Unknown frame id 147 (0x93)
 (1548862270.326158)  can0  2B0   [8]  50 00 00 07 75 00 00 00 :: STEERING_ANGLE(STEERING_WHEEL_ANGLE: 8.0 degrees)
 (1548862270.328237)  can0  220   [8]  E8 03 07 04 00 00 41 10 :: BRAKE_PRESSURE(BRAKE_PRESSURE: 0.0 bar)
 (1548862270.331859)  can0  073   [8]  05 CC 00 00 00 2D 01 31 :: Unknown frame id 115 (0x73)
 (1548862270.332908)  can0  0B9   [8]  00 04 00 00 00 00 00 00 :: Unknown frame id 185 (0xb9)
 (1548862270.336111)  can0  2B0   [8]  4D 00 00 07 86 00 00 00 :: STEERING_ANGLE(STEERING_WHEEL_ANGLE: 7.7 degrees)
 (1548862270.338081)  can0  220   [8]  E9 03 07 04 00 00 44 10 :: BRAKE_PRESSURE(BRAKE_PRESSURE: 0.0 bar)
 (1548862270.339086)  can0  4B0   [8]  00 00 00 00 00 00 00 00 :: WHEEL_SPEED(LEFT_FRONT: 0.0 kph, RIGHT_FRONT: 0.0 kph, LEFT_REAR: 0.0 kph, RIGHT_REAR: 0.0 kph)
 (1548862270.340084)  can0  083   [8]  05 CC 00 00 00 00 00 00 :: Unknown frame id 131 (0x83)
 (1548862270.342199)  can0  093   [8]  05 CC 00 00 00 00 00 00 :: Unknown frame id 147 (0x93)
 (1548862270.346233)  can0  2B0   [8]  4D 00 00 07 97 00 00 00 :: STEERING_ANGLE(STEERING_WHEEL_ANGLE: 7.7 degrees)
 (1548862270.348296)  can0  220   [8]  EA 03 06 04 00 00 46 10 :: BRAKE_PRESSURE(BRAKE_PRESSURE: 0.0 bar)
 (1548862270.351830)  can0  073   [8]  05 CC 00 00 00 2D 01 31 :: Unknown frame id 115 (0x73)
 (1548862270.352858)  can0  0B9   [8]  00 04 00 00 00 00 00 00 :: Unknown frame id 185 (0xb9)
 (1548862270.356153)  can0  2B0   [8]  4D 00 00 07 68 00 00 00 :: STEERING_ANGLE(STEERING_WHEEL_ANGLE: 7.7 degrees)
 (1548862270.357954)  can0  220   [8]  E9 03 05 04 00 00 43 10 :: BRAKE_PRESSURE(BRAKE_PRESSURE: 0.0 bar)
 (1548862270.358958)  can0  4B0   [8]  00 00 00 00 00 00 00 00 :: WHEEL_SPEED(LEFT_FRONT: 0.0 kph, RIGHT_FRONT: 0.0 kph, LEFT_REAR: 0.0 kph, RIGHT_REAR: 0.0 kph)
 (1548862270.359980)  can0  083   [8]  05 CC 00 00 00 31 08 04 :: Unknown frame id 131 (0x83)
 (1548862270.362235)  can0  093   [8]  05 CC 00 00 00 0D 01 31 :: Unknown frame id 147 (0x93)
 (1548862270.366136)  can0  2B0   [8]  4D 00 00 07 79 00 00 00 :: STEERING_ANGLE(STEERING_WHEEL_ANGLE: 7.7 degrees)
 (1548862270.368155)  can0  220   [8]  E9 03 04 04 00 00 40 10 :: BRAKE_PRESSURE(BRAKE_PRESSURE: 0.0 bar)
 (1548862270.371825)  can0  073   [8]  05 CC 00 00 00 CF 08 9F :: Unknown frame id 115 (0x73)
 (1548862270.372828)  can0  0B9   [8]  00 04 00 00 00 00 00 00 :: Unknown frame id 185 (0xb9)
 (1548862270.376008)  can0  2B0   [8]  4D 00 00 07 4A 00 00 00 :: STEERING_ANGLE(STEERING_WHEEL_ANGLE: 7.7 degrees)
 (1548862270.378024)  can0  220   [8]  E9 03 03 04 00 00 3A 10 :: BRAKE_PRESSURE(BRAKE_PRESSURE: 0.0 bar)
 (1548862270.379051)  can0  4B0   [8]  00 00 00 00 00 00 00 00 :: WHEEL_SPEED(LEFT_FRONT: 0.0 kph, RIGHT_FRONT: 0.0 kph, LEFT_REAR: 0.0 kph, RIGHT_REAR: 0.0 kph)
 (1548862270.380058)  can0  083   [8]  05 CC 00 00 00 53 01 31 :: Unknown frame id 131 (0x83)
 (1548862270.382207)  can0  093   [8]  05 CC 00 00 00 0D 01 31 :: Unknown frame id 147 (0x93)
 (1548862270.386423)  can0  2B0   [8]  4D 00 00 07 5B 00 00 00 :: STEERING_ANGLE(STEERING_WHEEL_ANGLE: 7.7 degrees)
 (1548862270.388232)  can0  220   [8]  E9 03 03 04 00 00 38 10 :: BRAKE_PRESSURE(BRAKE_PRESSURE: 0.0 bar)
 (1548862270.391861)  can0  073   [8]  05 CC 00 00 00 2D 01 31 :: Unknown frame id 115 (0x73)
 (1548862270.392858)  can0  0B9   [8]  00 04 00 00 00 00 00 00 :: Unknown frame id 185 (0xb9)
 (1548862270.396558)  can0  2B0   [8]  4E 00 00 07 1C 00 00 00 :: STEERING_ANGLE(STEERING_WHEEL_ANGLE: 7.800000000000001 degrees)
 (1548862270.398107)  can0  220   [8]  EA 03 03 04 00 00 35 10 :: BRAKE_PRESSURE(BRAKE_PRESSURE: 0.0 bar)
 (1548862270.399134)  can0  083   [8]  05 CC 00 00 00 53 01 31 :: Unknown frame id 131 (0x83)
 (1548862270.399135)  can0  4B0   [8]  00 00 00 00 00 00 00 00 :: WHEEL_SPEED(LEFT_FRONT: 0.0 kph, RIGHT_FRONT: 0.0 kph, LEFT_REAR: 0.0 kph, RIGHT_REAR: 0.0 kph)
 (1548862270.402180)  can0  093   [8]  05 CC 00 00 00 0D 01 31 :: Unknown frame id 147 (0x93)
 (1548862270.406083)  can0  2B0   [8]  4D 00 00 07 3D 00 00 00 :: STEERING_ANGLE(STEERING_WHEEL_ANGLE: 7.7 degrees)
 (1548862270.408274)  can0  220   [8]  EA 03 03 04 00 00 32 10 :: BRAKE_PRESSURE(BRAKE_PRESSURE: 0.0 bar)
 (1548862270.411834)  can0  073   [8]  05 CC 00 00 00 2D 01 31 :: Unknown frame id 115 (0x73)
 (1548862270.412910)  can0  0B9   [8]  00 04 00 00 00 00 00 00 :: Unknown frame id 185 (0xb9)
 (1548862270.416158)  can0  2B0   [8]  4E 00 00 07 3E 00 00 00 :: STEERING_ANGLE(STEERING_WHEEL_ANGLE: 7.800000000000001 degrees)
 (1548862270.417952)  can0  220   [8]  EC 03 05 04 00 00 31 10 :: BRAKE_PRESSURE(BRAKE_PRESSURE: 0.0 bar)
 (1548862270.419011)  can0  4B0   [8]  00 00 00 00 00 00 00 00 :: WHEEL_SPEED(LEFT_FRONT: 0.0 kph, RIGHT_FRONT: 0.0 kph, LEFT_REAR: 0.0 kph, RIGHT_REAR: 0.0 kph)
 (1548862270.419988)  can0  083   [8]  05 CC 00 00 00 53 01 31 :: Unknown frame id 131 (0x83)
 (1548862270.422178)  can0  093   [8]  05 CC 00 00 00 00 00 00 :: Unknown frame id 147 (0x93)
 (1548862270.426154)  can0  2B0   [8]  4D 00 00 07 1F 00 00 00 :: STEERING_ANGLE(STEERING_WHEEL_ANGLE: 7.7 degrees)
 (1548862270.428155)  can0  220   [8]  EE 03 06 04 00 00 31 10 :: BRAKE_PRESSURE(BRAKE_PRESSURE: 0.0 bar)
 (1548862270.431804)  can0  073   [8]  05 CC 00 00 00 2D 01 31 :: Unknown frame id 115 (0x73)
 (1548862270.432929)  can0  0B9   [8]  00 04 00 00 00 00 00 00 :: Unknown frame id 185 (0xb9)
 (1548862270.436029)  can0  2B0   [8]  4D 00 00 07 E0 00 00 00 :: STEERING_ANGLE(STEERING_WHEEL_ANGLE: 7.7 degrees)
 (1548862270.438056)  can0  220   [8]  EE 03 06 04 00 00 31 10 :: BRAKE_PRESSURE(BRAKE_PRESSURE: 0.0 bar)
 (1548862270.439061)  can0  083   [8]  05 CC 00 00 00 53 01 31 :: Unknown frame id 131 (0x83)
 (1548862270.440079)  can0  4B0   [8]  00 00 00 00 00 00 00 00 :: WHEEL_SPEED(LEFT_FRONT: 0.0 kph, RIGHT_FRONT: 0.0 kph, LEFT_REAR: 0.0 kph, RIGHT_REAR: 0.0 kph)
 (1548862270.442240)  can0  093   [8]  05 CC 00 00 00 0D 01 31 :: Unknown frame id 147 (0x93)
 (1548862270.446007)  can0  2B0   [8]  4D 00 00 07 F1 00 00 00 :: STEERING_ANGLE(STEERING_WHEEL_ANGLE: 7.7 degrees)
 (1548862270.448256)  can0  220   [8]  EE 03 07 04 00 00 36 10 :: BRAKE_PRESSURE(BRAKE_PRESSURE: 0.0 bar)
 (1548862270.451823)  can0  073   [8]  05 CC 00 00 00 A2 31 F7 :: Unknown frame id 115 (0x73)
 (1548862270.453005)  can0  0B9   [8]  00 04 00 00 00 00 00 00 :: Unknown frame id 185 (0xb9)
 (1548862270.456107)  can0  2B0   [8]  4D 00 00 07 C2 00 00 00 :: STEERING_ANGLE(STEERING_WHEEL_ANGLE: 7.7 degrees)
 (1548862270.457905)  can0  220   [8]  ED 03 07 04 00 00 3E 10 :: BRAKE_PRESSURE(BRAKE_PRESSURE: 0.0 bar)
 (1548862270.458920)  can0  4B0   [8]  00 00 00 00 00 00 00 00 :: WHEEL_SPEED(LEFT_FRONT: 0.0 kph, RIGHT_FRONT: 0.0 kph, LEFT_REAR: 0.0 kph, RIGHT_REAR: 0.0 kph)
 (1548862270.459928)  can0  083   [8]  05 CC 00 00 00 53 01 31 :: Unknown frame id 131 (0x83)
 (1548862270.462180)  can0  093   [8]  05 CC 00 00 00 0D 01 31 :: Unknown frame id 147 (0x93)
 (1548862270.466076)  can0  2B0   [8]  4D 00 00 07 D3 00 00 00 :: STEERING_ANGLE(STEERING_WHEEL_ANGLE: 7.7 degrees)
 (1548862270.468330)  can0  220   [8]  ED 03 07 04 00 00 42 10 :: BRAKE_PRESSURE(BRAKE_PRESSURE: 0.0 bar)
 (1548862270.471835)  can0  073   [8]  05 CC 00 00 00 2D 01 31 :: Unknown frame id 115 (0x73)
 (1548862270.473104)  can0  0B9   [8]  00 04 00 00 00 00 00 00 :: Unknown frame id 185 (0xb9)
 (1548862270.476180)  can0  2B0   [8]  4D 00 00 07 A4 00 00 00 :: STEERING_ANGLE(STEERING_WHEEL_ANGLE: 7.7 degrees)
 (1548862270.477952)  can0  220   [8]  ED 03 06 04 00 00 3F 10 :: BRAKE_PRESSURE(BRAKE_PRESSURE: 0.0 bar)
 (1548862270.478983)  can0  4B0   [8]  00 00 00 00 00 00 00 00 :: WHEEL_SPEED(LEFT_FRONT: 0.0 kph, RIGHT_FRONT: 0.0 kph, LEFT_REAR: 0.0 kph, RIGHT_REAR: 0.0 kph)
 (1548862270.480010)  can0  083   [8]  05 CC 00 00 00 53 01 31 :: Unknown frame id 131 (0x83)
 (1548862270.482185)  can0  093   [8]  05 CC 00 00 00 00 00 00 :: Unknown frame id 147 (0x93)
 (1548862270.486128)  can0  2B0   [8]  4D 00 00 07 B5 00 00 00 :: STEERING_ANGLE(STEERING_WHEEL_ANGLE: 7.7 degrees)
 (1548862270.488378)  can0  220   [8]  ED 03 04 04 00 00 3C 10 :: BRAKE_PRESSURE(BRAKE_PRESSURE: 0.0 bar)
 (1548862270.491804)  can0  073   [8]  05 CC 00 00 00 2D 01 31 :: Unknown frame id 115 (0x73)
 (1548862270.493131)  can0  0B9   [8]  00 04 00 00 00 00 00 00 :: Unknown frame id 185 (0xb9)
 (1548862270.496446)  can0  2B0   [8]  4D 00 00 07 86 00 00 00 :: STEERING_ANGLE(STEERING_WHEEL_ANGLE: 7.7 degrees)
 (1548862270.498254)  can0  220   [8]  EB 03 03 04 00 00 39 10 :: BRAKE_PRESSURE(BRAKE_PRESSURE: 0.0 bar)
 (1548862270.499252)  can0  083   [8]  05 CC 00 00 00 53 01 31 :: Unknown frame id 131 (0x83)
 (1548862270.499253)  can0  4B0   [8]  00 00 00 00 00 00 00 00 :: WHEEL_SPEED(LEFT_FRONT: 0.0 kph, RIGHT_FRONT: 0.0 kph, LEFT_REAR: 0.0 kph, RIGHT_REAR: 0.0 kph)
 (1548862270.502277)  can0  093   [8]  05 CC 00 00 00 0D 01 31 :: Unknown frame id 147 (0x93)
 (1548862270.506008)  can0  2B0   [8]  4E 00 00 07 A7 00 00 00 :: STEERING_ANGLE(STEERING_WHEEL_ANGLE: 7.800000000000001 degrees)
 (1548862270.508317)  can0  220   [8]  EB 03 04 04 00 00 36 10 :: BRAKE_PRESSURE(BRAKE_PRESSURE: 0.0 bar)
 (1548862270.511808)  can0  073   [8]  05 CC 00 00 00 CF 08 9F :: Unknown frame id 115 (0x73)
 (1548862270.513233)  can0  0B9   [8]  00 04 00 00 00 00 00 00 :: Unknown frame id 185 (0xb9)
 (1548862270.516106)  can0  2B0   [8]  4E 00 00 07 58 00 00 00 :: STEERING_ANGLE(STEERING_WHEEL_ANGLE: 7.800000000000001 degrees)
 (1548862270.517900)  can0  220   [8]  EA 03 05 04 00 00 34 10 :: BRAKE_PRESSURE(BRAKE_PRESSURE: 0.0 bar)
 (1548862270.518906)  can0  4B0   [8]  00 00 00 00 00 00 00 00 :: WHEEL_SPEED(LEFT_FRONT: 0.0 kph, RIGHT_FRONT: 0.0 kph, LEFT_REAR: 0.0 kph, RIGHT_REAR: 0.0 kph)
 (1548862270.519896)  can0  083   [8]  05 CC 00 00 00 00 00 00 :: Unknown frame id 131 (0x83)
 (1548862270.522180)  can0  093   [8]  05 CC 00 00 00 0D 01 31 :: Unknown frame id 147 (0x93)
 (1548862270.526056)  can0  2B0   [8]  4E 00 00 07 49 00 00 00 :: STEERING_ANGLE(STEERING_WHEEL_ANGLE: 7.800000000000001 degrees)
 (1548862270.528328)  can0  220   [8]  E9 03 05 04 00 00 31 10 :: BRAKE_PRESSURE(BRAKE_PRESSURE: 0.0 bar)
 (1548862270.531802)  can0  073   [8]  05 CC 00 00 00 2D 01 31 :: Unknown frame id 115 (0x73)
 (1548862270.533277)  can0  0B9   [8]  00 04 00 00 00 00 00 00 :: Unknown frame id 185 (0xb9)
 (1548862270.536186)  can0  2B0   [8]  4D 00 00 07 4A 00 00 00 :: STEERING_ANGLE(STEERING_WHEEL_ANGLE: 7.7 degrees)
 (1548862270.537957)  can0  220   [8]  EA 03 05 04 00 00 30 10 :: BRAKE_PRESSURE(BRAKE_PRESSURE: 0.0 bar)
 (1548862270.538982)  can0  4B0   [8]  00 00 00 00 00 00 00 00 :: WHEEL_SPEED(LEFT_FRONT: 0.0 kph, RIGHT_FRONT: 0.0 kph, LEFT_REAR: 0.0 kph, RIGHT_REAR: 0.0 kph)
 (1548862270.539986)  can0  083   [8]  05 CC 00 00 00 53 01 31 :: Unknown frame id 131 (0x83)
 (1548862270.542213)  can0  093   [8]  05 CC 00 00 00 0D 01 31 :: Unknown frame id 147 (0x93)
 (1548862270.546237)  can0  2B0   [8]  4D 00 00 07 5B 00 00 00 :: STEERING_ANGLE(STEERING_WHEEL_ANGLE: 7.7 degrees)
 (1548862270.548207)  can0  220   [8]  EB 03 05 04 00 00 32 10 :: BRAKE_PRESSURE(BRAKE_PRESSURE: 0.0 bar)
 (1548862270.551812)  can0  073   [8]  05 CC 00 00 00 2D 01 31 :: Unknown frame id 115 (0x73)
 (1548862270.553406)  can0  0B9   [8]  00 04 00 00 00 00 00 00 :: Unknown frame id 185 (0xb9)
 (1548862270.556055)  can0  2B0   [8]  4D 00 00 07 2C 00 00 00 :: STEERING_ANGLE(STEERING_WHEEL_ANGLE: 7.7 degrees)
 (1548862270.558081)  can0  220   [8]  EA 03 05 04 00 00 39 10 :: BRAKE_PRESSURE(BRAKE_PRESSURE: 0.0 bar)
 (1548862270.559080)  can0  083   [8]  05 CC 00 00 00 53 01 31 :: Unknown frame id 131 (0x83)
 (1548862270.559081)  can0  4B0   [8]  00 00 00 00 00 00 00 00 :: WHEEL_SPEED(LEFT_FRONT: 0.0 kph, RIGHT_FRONT: 0.0 kph, LEFT_REAR: 0.0 kph, RIGHT_REAR: 0.0 kph)
 (1548862270.562149)  can0  093   [8]  05 CC 00 00 00 04 04 01 :: Unknown frame id 147 (0x93)
 (1548862270.565993)  can0  2B0   [8]  4F 00 00 07 1D 00 00 00 :: STEERING_ANGLE(STEERING_WHEEL_ANGLE: 7.9 degrees)
 (1548862270.568306)  can0  220   [8]  EA 03 05 04 00 00 3E 10 :: BRAKE_PRESSURE(BRAKE_PRESSURE: 0.0 bar)
 (1548862270.571807)  can0  073   [8]  05 CC 00 00 00 2D 01 31 :: Unknown frame id 115 (0x73)
 (1548862270.573506)  can0  0B9   [8]  00 04 00 00 00 00 00 00 :: Unknown frame id 185 (0xb9)
 (1548862270.576174)  can0  2B0   [8]  4D 00 00 07 0E 00 00 00 :: STEERING_ANGLE(STEERING_WHEEL_ANGLE: 7.7 degrees)
 (1548862270.578109)  can0  220   [8]  EB 03 05 04 00 00 3E 10 :: BRAKE_PRESSURE(BRAKE_PRESSURE: 0.0 bar)
 (1548862270.579114)  can0  083   [8]  05 CC 00 00 00 17 00 00 :: Unknown frame id 131 (0x83)
 (1548862270.579115)  can0  4B0   [8]  00 00 00 00 00 00 00 00 :: WHEEL_SPEED(LEFT_FRONT: 0.0 kph, RIGHT_FRONT: 0.0 kph, LEFT_REAR: 0.0 kph, RIGHT_REAR: 0.0 kph)
 (1548862270.582182)  can0  093   [8]  05 CC 00 00 00 0D 01 31 :: Unknown frame id 147 (0x93)
 (1548862270.586664)  can0  2B0   [8]  4F 00 00 07 3F 00 00 00 :: STEERING_ANGLE(STEERING_WHEEL_ANGLE: 7.9 degrees)
 (1548862270.588332)  can0  220   [8]  EB 03 05 04 00 00 3E 10 :: BRAKE_PRESSURE(BRAKE_PRESSURE: 0.0 bar)
 (1548862270.591778)  can0  073   [8]  05 CC 00 00 00 2D 01 31 :: Unknown frame id 115 (0x73)
 (1548862270.593532)  can0  0B9   [8]  00 04 00 00 00 00 00 00 :: Unknown frame id 185 (0xb9)
 (1548862270.596437)  can0  2B0   [8]  4E 00 00 07 D0 00 00 00 :: STEERING_ANGLE(STEERING_WHEEL_ANGLE: 7.800000000000001 degrees)
 (1548862270.598302)  can0  220   [8]  EB 03 05 04 00 00 3E 10 :: BRAKE_PRESSURE(BRAKE_PRESSURE: 0.0 bar)
 (1548862270.599302)  can0  083   [8]  05 CC 00 00 00 53 01 31 :: Unknown frame id 131 (0x83)
 (1548862270.599303)  can0  4B0   [8]  00 00 00 00 00 00 00 00 :: WHEEL_SPEED(LEFT_FRONT: 0.0 kph, RIGHT_FRONT: 0.0 kph, LEFT_REAR: 0.0 kph, RIGHT_REAR: 0.0 kph)
 (1548862270.602159)  can0  093   [8]  05 CC 00 00 00 0D 01 31 :: Unknown frame id 147 (0x93)
 (1548862270.606280)  can0  2B0   [8]  4D 00 00 07 F1 00 00 00 :: STEERING_ANGLE(STEERING_WHEEL_ANGLE: 7.7 degrees)
 (1548862270.608306)  can0  220   [8]  EA 03 06 04 00 00 3E 10 :: BRAKE_PRESSURE(BRAKE_PRESSURE: 0.0 bar)
 (1548862270.611809)  can0  073   [8]  05 CC 00 00 00 2D 01 31 :: Unknown frame id 115 (0x73)
 (1548862270.613733)  can0  0B9   [8]  00 04 00 00 00 00 00 00 :: Unknown frame id 185 (0xb9)
 (1548862270.616182)  can0  2B0   [8]  4D 00 00 07 C2 00 00 00 :: STEERING_ANGLE(STEERING_WHEEL_ANGLE: 7.7 degrees)
 (1548862270.618106)  can0  220   [8]  EA 03 06 04 00 00 3E 10 :: BRAKE_PRESSURE(BRAKE_PRESSURE: 0.0 bar)
 (1548862270.619045)  can0  4B0   [8]  00 00 00 00 00 00 00 00 :: WHEEL_SPEED(LEFT_FRONT: 0.0 kph, RIGHT_FRONT: 0.0 kph, LEFT_REAR: 0.0 kph, RIGHT_REAR: 0.0 kph)
 (1548862270.620019)  can0  083   [8]  05 CC 00 00 00 53 01 31 :: Unknown frame id 131 (0x83)
 (1548862270.622157)  can0  093   [8]  05 CC 00 00 00 0D 01 31 :: Unknown frame id 147 (0x93)
 (1548862270.626154)  can0  2B0   [8]  4D 00 00 07 D3 00 00 00 :: STEERING_ANGLE(STEERING_WHEEL_ANGLE: 7.7 degrees)
 (1548862270.628179)  can0  220   [8]  EB 03 06 04 00 00 3E 10 :: BRAKE_PRESSURE(BRAKE_PRESSURE: 0.0 bar)
 (1548862270.631808)  can0  073   [8]  05 CC 00 00 00 2D 01 31 :: Unknown frame id 115 (0x73)
 (1548862270.633830)  can0  0B9   [8]  00 04 00 00 00 00 00 00 :: Unknown frame id 185 (0xb9)
 (1548862270.636031)  can0  2B0   [8]  4D 00 00 07 A4 00 00 00 :: STEERING_ANGLE(STEERING_WHEEL_ANGLE: 7.7 degrees)
 (1548862270.638034)  can0  220   [8]  EB 03 06 04 00 00 3E 10 :: BRAKE_PRESSURE(BRAKE_PRESSURE: 0.0 bar)
 (1548862270.639060)  can0  083   [8]  05 CC 00 00 00 12 9C A2 :: Unknown frame id 131 (0x83)
 (1548862270.639061)  can0  4B0   [8]  00 00 00 00 00 00 00 00 :: WHEEL_SPEED(LEFT_FRONT: 0.0 kph, RIGHT_FRONT: 0.0 kph, LEFT_REAR: 0.0 kph, RIGHT_REAR: 0.0 kph)
 (1548862270.642160)  can0  093   [8]  05 CC 00 00 00 0D 01 31 :: Unknown frame id 147 (0x93)
 (1548862270.646157)  can0  2B0   [8]  4D 00 00 07 B5 00 00 00 :: STEERING_ANGLE(STEERING_WHEEL_ANGLE: 7.7 degrees)
 (1548862270.648243)  can0  220   [8]  EA 03 06 04 00 00 3E 10 :: BRAKE_PRESSURE(BRAKE_PRESSURE: 0.0 bar)
 (1548862270.651784)  can0  073   [8]  05 CC 00 00 00 04 04 01 :: Unknown frame id 115 (0x73)
 (1548862270.653830)  can0  0B9   [8]  00 04 00 00 00 00 00 00 :: Unknown frame id 185 (0xb9)
 (1548862270.656117)  can0  2B0   [8]  4D 00 00 07 86 00 00 00 :: STEERING_ANGLE(STEERING_WHEEL_ANGLE: 7.7 degrees)
 (1548862270.658082)  can0  220   [8]  E9 03 05 04 00 00 3E 10 :: BRAKE_PRESSURE(BRAKE_PRESSURE: 0.0 bar)
 (1548862270.659088)  can0  083   [8]  05 CC 00 00 00 04 04 01 :: Unknown frame id 131 (0x83)
 (1548862270.659089)  can0  4B0   [8]  00 00 00 00 00 00 00 00 :: WHEEL_SPEED(LEFT_FRONT: 0.0 kph, RIGHT_FRONT: 0.0 kph, LEFT_REAR: 0.0 kph, RIGHT_REAR: 0.0 kph)
 (1548862270.662155)  can0  093   [8]  05 CC 00 00 00 0D 01 31 :: Unknown frame id 147 (0x93)
 (1548862270.666219)  can0  2B0   [8]  4D 00 00 07 97 00 00 00 :: STEERING_ANGLE(STEERING_WHEEL_ANGLE: 7.7 degrees)
 (1548862270.668217)  can0  220   [8]  E8 03 04 04 00 00 3E 10 :: BRAKE_PRESSURE(BRAKE_PRESSURE: 0.0 bar)
 (1548862270.671758)  can0  073   [8]  05 CC 00 00 00 2D 01 31 :: Unknown frame id 115 (0x73)
 (1548862270.673892)  can0  0B9   [8]  00 04 00 00 00 00 00 00 :: Unknown frame id 185 (0xb9)
 (1548862270.676145)  can0  2B0   [8]  4D 00 00 07 68 00 00 00 :: STEERING_ANGLE(STEERING_WHEEL_ANGLE: 7.7 degrees)
 (1548862270.678165)  can0  220   [8]  E8 03 03 04 00 00 3E 10 :: BRAKE_PRESSURE(BRAKE_PRESSURE: 0.0 bar)
 (1548862270.679106)  can0  083   [8]  05 CC 00 00 00 53 01 31 :: Unknown frame id 131 (0x83)
 (1548862270.679107)  can0  4B0   [8]  00 00 00 00 00 00 00 00 :: WHEEL_SPEED(LEFT_FRONT: 0.0 kph, RIGHT_FRONT: 0.0 kph, LEFT_REAR: 0.0 kph, RIGHT_REAR: 0.0 kph)
 (1548862270.682135)  can0  093   [8]  05 CC 00 00 00 0D 01 31 :: Unknown frame id 147 (0x93)
 (1548862270.686626)  can0  2B0   [8]  4E 00 00 07 49 00 00 00 :: STEERING_ANGLE(STEERING_WHEEL_ANGLE: 7.800000000000001 degrees)
 (1548862270.688209)  can0  220   [8]  E8 03 03 04 00 00 40 10 :: BRAKE_PRESSURE(BRAKE_PRESSURE: 0.0 bar)
 (1548862270.691842)  can0  073   [8]  05 CC 00 00 00 2D 01 31 :: Unknown frame id 115 (0x73)
 (1548862270.694132)  can0  0B9   [8]  00 04 00 00 00 00 00 00 :: Unknown frame id 185 (0xb9)
 (1548862270.696535)  can0  2B0   [8]  4D 00 00 07 4A 00 00 00 :: STEERING_ANGLE(STEERING_WHEEL_ANGLE: 7.7 degrees)
 (1548862270.698330)  can0  220   [8]  E9 03 05 04 00 00 43 10 :: BRAKE_PRESSURE(BRAKE_PRESSURE: 0.0 bar)
 (1548862270.699418)  can0  083   [8]  05 CC 00 00 00 53 01 31 :: Unknown frame id 131 (0x83)
 (1548862270.699420)  can0  4B0   [8]  00 00 00 00 00 00 00 00 :: WHEEL_SPEED(LEFT_FRONT: 0.0 kph, RIGHT_FRONT: 0.0 kph, LEFT_REAR: 0.0 kph, RIGHT_REAR: 0.0 kph)
 (1548862270.702253)  can0  093   [8]  05 CC 00 00 00 0A E0 0B :: Unknown frame id 147 (0x93)
 (1548862270.706206)  can0  2B0   [8]  4D 00 00 07 5B 00 00 00 :: STEERING_ANGLE(STEERING_WHEEL_ANGLE: 7.7 degrees)
 (1548862270.708453)  can0  220   [8]  EB 03 05 04 00 00 41 10 :: BRAKE_PRESSURE(BRAKE_PRESSURE: 0.0 bar)
 (1548862270.711885)  can0  073   [8]  05 CC 00 00 00 2D 01 31 :: Unknown frame id 115 (0x73)
 (1548862270.714316)  can0  0B9   [8]  00 04 00 00 00 00 00 00 :: Unknown frame id 185 (0xb9)
 (1548862270.716304)  can0  2B0   [8]  4F 00 00 07 0C 00 00 00 :: STEERING_ANGLE(STEERING_WHEEL_ANGLE: 7.9 degrees)
 (1548862270.718178)  can0  220   [8]  EB 03 05 04 00 00 3B 10 :: BRAKE_PRESSURE(BRAKE_PRESSURE: 0.0 bar)
 (1548862270.719124)  can0  083   [8]  05 CC 00 00 00 DC 0B 17 :: Unknown frame id 131 (0x83)
 (1548862270.719126)  can0  4B0   [8]  00 00 00 00 00 00 00 00 :: WHEEL_SPEED(LEFT_FRONT: 0.0 kph, RIGHT_FRONT: 0.0 kph, LEFT_REAR: 0.0 kph, RIGHT_REAR: 0.0 kph)
 (1548862270.722193)  can0  093   [8]  05 CC 00 00 00 0D 01 31 :: Unknown frame id 147 (0x93)
 (1548862270.726302)  can0  2B0   [8]  4D 00 00 07 3D 00 00 00 :: STEERING_ANGLE(STEERING_WHEEL_ANGLE: 7.7 degrees)
 (1548862270.728429)  can0  220   [8]  EA 03 05 04 00 00 36 10 :: BRAKE_PRESSURE(BRAKE_PRESSURE: 0.0 bar)
 (1548862270.731880)  can0  073   [8]  05 CC 00 00 00 9F 0A E0 :: Unknown frame id 115 (0x73)
 (1548862270.734553)  can0  0B9   [8]  00 04 00 00 00 00 00 00 :: Unknown frame id 185 (0xb9)
 (1548862270.736303)  can0  2B0   [8]  4D 00 00 07 0E 00 00 00 :: STEERING_ANGLE(STEERING_WHEEL_ANGLE: 7.7 degrees)
 (1548862270.738179)  can0  220   [8]  E9 03 05 04 00 00 35 10 :: BRAKE_PRESSURE(BRAKE_PRESSURE: 0.0 bar)
 (1548862270.739207)  can0  083   [8]  05 CC 00 00 00 53 01 31 :: Unknown frame id 131 (0x83)
 (1548862270.739208)  can0  4B0   [8]  00 00 00 00 00 00 00 00 :: WHEEL_SPEED(LEFT_FRONT: 0.0 kph, RIGHT_FRONT: 0.0 kph, LEFT_REAR: 0.0 kph, RIGHT_REAR: 0.0 kph)
 (1548862270.742205)  can0  093   [8]  05 CC 00 00 00 0D 01 31 :: Unknown frame id 147 (0x93)
 (1548862270.746198)  can0  2B0   [8]  4D 00 00 07 1F 00 00 00 :: STEERING_ANGLE(STEERING_WHEEL_ANGLE: 7.7 degrees)
 (1548862270.748235)  can0  220   [8]  E9 03 04 04 00 00 35 10 :: BRAKE_PRESSURE(BRAKE_PRESSURE: 0.0 bar)
 (1548862270.751891)  can0  073   [8]  05 CC 00 00 00 2D 01 31 :: Unknown frame id 115 (0x73)
 (1548862270.754617)  can0  0B9   [8]  00 04 00 00 00 00 00 00 :: Unknown frame id 185 (0xb9)
 (1548862270.756167)  can0  2B0   [8]  4D 00 00 07 E0 00 00 00 :: STEERING_ANGLE(STEERING_WHEEL_ANGLE: 7.7 degrees)
 (1548862270.758203)  can0  220   [8]  E9 03 04 04 00 00 35 10 :: BRAKE_PRESSURE(BRAKE_PRESSURE: 0.0 bar)
 (1548862270.758762)  can0  083   [8]  05 CC 00 00 00 53 01 31 :: Unknown frame id 131 (0x83)
 (1548862270.759907)  can0  4B0   [8]  00 00 00 00 00 00 00 00 :: WHEEL_SPEED(LEFT_FRONT: 0.0 kph, RIGHT_FRONT: 0.0 kph, LEFT_REAR: 0.0 kph, RIGHT_REAR: 0.0 kph)
 (1548862270.762194)  can0  093   [8]  05 CC 00 00 00 0D 01 31 :: Unknown frame id 147 (0x93)
 (1548862270.766278)  can0  2B0   [8]  4D 00 00 07 F1 00 00 00 :: STEERING_ANGLE(STEERING_WHEEL_ANGLE: 7.7 degrees)
 (1548862270.768279)  can0  220   [8]  EA 03 05 04 00 00 35 10 :: BRAKE_PRESSURE(BRAKE_PRESSURE: 0.0 bar)
 (1548862270.771784)  can0  073   [8]  05 CC 00 00 00 2D 01 31 :: Unknown frame id 115 (0x73)
 (1548862270.774723)  can0  0B9   [8]  00 04 00 00 00 00 00 00 :: Unknown frame id 185 (0xb9)
 (1548862270.776043)  can0  2B0   [8]  51 00 00 07 12 00 00 00 :: STEERING_ANGLE(STEERING_WHEEL_ANGLE: 8.1 degrees)
 (1548862270.778144)  can0  220   [8]  EB 03 05 04 00 00 35 10 :: BRAKE_PRESSURE(BRAKE_PRESSURE: 0.0 bar)
 (1548862270.779241)  can0  083   [8]  05 CC 00 00 00 9A 08 9F :: Unknown frame id 131 (0x83)
 (1548862270.779242)  can0  4B0   [8]  00 00 00 00 00 00 00 00 :: WHEEL_SPEED(LEFT_FRONT: 0.0 kph, RIGHT_FRONT: 0.0 kph, LEFT_REAR: 0.0 kph, RIGHT_REAR: 0.0 kph)
 (1548862270.782242)  can0  093   [8]  05 CC 00 00 00 0D 01 31 :: Unknown frame id 147 (0x93)
 (1548862270.786737)  can0  2B0   [8]  4D 00 00 07 D3 00 00 00 :: STEERING_ANGLE(STEERING_WHEEL_ANGLE: 7.7 degrees)
 (1548862270.788428)  can0  220   [8]  EC 03 04 04 00 00 36 10 :: BRAKE_PRESSURE(BRAKE_PRESSURE: 0.0 bar)
 (1548862270.791861)  can0  073   [8]  05 CC 00 00 00 2D 01 31 :: Unknown frame id 115 (0x73)
 (1548862270.794953)  can0  0B9   [8]  00 04 00 00 00 00 00 00 :: Unknown frame id 185 (0xb9)
 (1548862270.796667)  can0  2B0   [8]  4D 00 00 07 A4 00 00 00 :: STEERING_ANGLE(STEERING_WHEEL_ANGLE: 7.7 degrees)
 (1548862270.798405)  can0  220   [8]  EB 03 03 04 00 00 39 10 :: BRAKE_PRESSURE(BRAKE_PRESSURE: 0.0 bar)
 (1548862270.799346)  can0  083   [8]  05 CC 00 00 00 53 01 31 :: Unknown frame id 131 (0x83)
 (1548862270.799347)  can0  4B0   [8]  00 00 00 00 00 00 00 00 :: WHEEL_SPEED(LEFT_FRONT: 0.0 kph, RIGHT_FRONT: 0.0 kph, LEFT_REAR: 0.0 kph, RIGHT_REAR: 0.0 kph)
 (1548862270.802216)  can0  093   [8]  05 CC 00 00 00 0D 01 31 :: Unknown frame id 147 (0x93)
 (1548862270.806044)  can0  2B0   [8]  4D 00 00 07 B5 00 00 00 :: STEERING_ANGLE(STEERING_WHEEL_ANGLE: 7.7 degrees)
 (1548862270.808238)  can0  220   [8]  EA 03 03 04 00 00 3B 10 :: BRAKE_PRESSURE(BRAKE_PRESSURE: 0.0 bar)
 (1548862270.811763)  can0  073   [8]  05 CC 00 00 00 2D 01 31 :: Unknown frame id 115 (0x73)
 (1548862270.815066)  can0  0B9   [8]  00 04 00 00 00 00 00 00 :: Unknown frame id 185 (0xb9)
 (1548862270.816181)  can0  2B0   [8]  4D 00 00 07 86 00 00 00 :: STEERING_ANGLE(STEERING_WHEEL_ANGLE: 7.7 degrees)
 (1548862270.818146)  can0  220   [8]  E8 03 03 04 00 00 3E 10 :: BRAKE_PRESSURE(BRAKE_PRESSURE: 0.0 bar)
 (1548862270.819159)  can0  083   [8]  05 CC 00 00 00 53 01 31 :: Unknown frame id 131 (0x83)
 (1548862270.819161)  can0  4B0   [8]  00 00 00 00 00 00 00 00 :: WHEEL_SPEED(LEFT_FRONT: 0.0 kph, RIGHT_FRONT: 0.0 kph, LEFT_REAR: 0.0 kph, RIGHT_REAR: 0.0 kph)
 (1548862270.822114)  can0  093   [8]  05 CC 00 00 00 0D 01 31 :: Unknown frame id 147 (0x93)
 (1548862270.826157)  can0  2B0   [8]  50 00 00 07 57 00 00 00 :: STEERING_ANGLE(STEERING_WHEEL_ANGLE: 8.0 degrees)
 (1548862270.828263)  can0  220   [8]  E8 03 03 04 00 00 3F 10 :: BRAKE_PRESSURE(BRAKE_PRESSURE: 0.0 bar)
 (1548862270.831765)  can0  073   [8]  05 CC 00 00 00 2D 01 31 :: Unknown frame id 115 (0x73)
 (1548862270.835019)  can0  0B9   [8]  00 04 00 00 00 00 00 00 :: Unknown frame id 185 (0xb9)
 (1548862270.836136)  can0  2B0   [8]  4E 00 00 07 58 00 00 00 :: STEERING_ANGLE(STEERING_WHEEL_ANGLE: 7.800000000000001 degrees)
 (1548862270.838037)  can0  220   [8]  E9 03 03 04 00 00 3D 10 :: BRAKE_PRESSURE(BRAKE_PRESSURE: 0.0 bar)
 (1548862270.839193)  can0  083   [8]  05 CC 00 00 00 08 9F 0A :: Unknown frame id 131 (0x83)
 (1548862270.839194)  can0  4B0   [8]  00 00 00 00 00 00 00 00 :: WHEEL_SPEED(LEFT_FRONT: 0.0 kph, RIGHT_FRONT: 0.0 kph, LEFT_REAR: 0.0 kph, RIGHT_REAR: 0.0 kph)
 (1548862270.842123)  can0  093   [8]  05 CC 00 00 00 61 64 23 :: Unknown frame id 147 (0x93)
 (1548862270.846161)  can0  2B0   [8]  50 00 00 07 B9 00 00 00 :: STEERING_ANGLE(STEERING_WHEEL_ANGLE: 8.0 degrees)
 (1548862270.848305)  can0  220   [8]  EC 03 04 04 00 00 3A 10 :: BRAKE_PRESSURE(BRAKE_PRESSURE: 0.0 bar)
 (1548862270.851744)  can0  073   [8]  05 CC 00 00 00 2D 01 31 :: Unknown frame id 115 (0x73)
 (1548862270.855058)  can0  0B9   [8]  00 04 00 00 00 00 00 00 :: Unknown frame id 185 (0xb9)
 (1548862270.856159)  can0  2B0   [8]  4D 00 00 07 4A 00 00 00 :: STEERING_ANGLE(STEERING_WHEEL_ANGLE: 7.7 degrees)
 (1548862270.858114)  can0  220   [8]  EC 03 05 04 00 00 39 10 :: BRAKE_PRESSURE(BRAKE_PRESSURE: 0.0 bar)
 (1548862270.859110)  can0  083   [8]  05 CC 00 00 00 53 01 31 :: Unknown frame id 131 (0x83)
 (1548862270.859111)  can0  4B0   [8]  00 00 00 00 00 00 00 00 :: WHEEL_SPEED(LEFT_FRONT: 0.0 kph, RIGHT_FRONT: 0.0 kph, LEFT_REAR: 0.0 kph, RIGHT_REAR: 0.0 kph)
 (1548862270.862188)  can0  093   [8]  05 CC 00 00 00 0D 01 31 :: Unknown frame id 147 (0x93)
 (1548862270.866160)  can0  2B0   [8]  4D 00 00 07 5B 00 00 00 :: STEERING_ANGLE(STEERING_WHEEL_ANGLE: 7.7 degrees)
 (1548862270.868258)  can0  220   [8]  EA 03 05 04 00 00 3B 10 :: BRAKE_PRESSURE(BRAKE_PRESSURE: 0.0 bar)
 (1548862270.871759)  can0  073   [8]  05 CC 00 00 00 E0 0B 8A :: Unknown frame id 115 (0x73)
 (1548862270.875237)  can0  0B9   [8]  00 04 00 00 00 00 00 00 :: Unknown frame id 185 (0xb9)
 (1548862270.876236)  can0  2B0   [8]  4D 00 00 07 2C 00 00 00 :: STEERING_ANGLE(STEERING_WHEEL_ANGLE: 7.7 degrees)
 (1548862270.878139)  can0  220   [8]  E9 03 03 04 00 00 3E 10 :: BRAKE_PRESSURE(BRAKE_PRESSURE: 0.0 bar)
 (1548862270.879162)  can0  083   [8]  05 CC 00 00 00 53 01 31 :: Unknown frame id 131 (0x83)
 (1548862270.879164)  can0  4B0   [8]  00 00 00 00 00 00 00 00 :: WHEEL_SPEED(LEFT_FRONT: 0.0 kph, RIGHT_FRONT: 0.0 kph, LEFT_REAR: 0.0 kph, RIGHT_REAR: 0.0 kph)
 (1548862270.882125)  can0  093   [8]  05 CC 00 00 00 08 9F 0A :: Unknown frame id 147 (0x93)
 (1548862270.886653)  can0  2B0   [8]  4F 00 00 07 1D 00 00 00 :: STEERING_ANGLE(STEERING_WHEEL_ANGLE: 7.9 degrees)
 (1548862270.888325)  can0  220   [8]  E9 03 03 04 00 00 41 10 :: BRAKE_PRESSURE(BRAKE_PRESSURE: 0.0 bar)
 (1548862270.891831)  can0  073   [8]  05 CC 00 00 00 2D 01 31 :: Unknown frame id 115 (0x73)
 (1548862270.895568)  can0  0B9   [8]  00 04 00 00 00 00 00 00 :: Unknown frame id 185 (0xb9)
 (1548862270.896662)  can0  2B0   [8]  51 00 00 07 DE 00 00 00 :: STEERING_ANGLE(STEERING_WHEEL_ANGLE: 8.1 degrees)
 (1548862270.898308)  can0  220   [8]  E9 03 05 04 00 00 3F 10 :: BRAKE_PRESSURE(BRAKE_PRESSURE: 0.0 bar)
 (1548862270.899333)  can0  083   [8]  05 CC 00 00 00 00 00 00 :: Unknown frame id 131 (0x83)
 (1548862270.899335)  can0  4B0   [8]  00 00 00 00 00 00 00 00 :: WHEEL_SPEED(LEFT_FRONT: 0.0 kph, RIGHT_FRONT: 0.0 kph, LEFT_REAR: 0.0 kph, RIGHT_REAR: 0.0 kph)
 (1548862270.902242)  can0  093   [8]  05 CC 00 00 00 0D 01 31 :: Unknown frame id 147 (0x93)
 (1548862270.906301)  can0  2B0   [8]  50 00 00 07 DF 00 00 00 :: STEERING_ANGLE(STEERING_WHEEL_ANGLE: 8.0 degrees)
 (1548862270.908458)  can0  220   [8]  E9 03 06 04 00 00 3A 10 :: BRAKE_PRESSURE(BRAKE_PRESSURE: 0.0 bar)
 (1548862270.911872)  can0  073   [8]  05 CC 00 00 00 2D 01 31 :: Unknown frame id 115 (0x73)
 (1548862270.915693)  can0  0B9   [8]  00 04 00 00 00 00 00 00 :: Unknown frame id 185 (0xb9)
 (1548862270.916654)  can0  2B0   [8]  4E 00 00 07 D0 00 00 00 :: STEERING_ANGLE(STEERING_WHEEL_ANGLE: 7.800000000000001 degrees)
 (1548862270.918043)  can0  220   [8]  E9 03 07 04 00 00 36 10 :: BRAKE_PRESSURE(BRAKE_PRESSURE: 0.0 bar)
 (1548862270.918953)  can0  4B0   [8]  00 00 00 00 00 00 00 00 :: WHEEL_SPEED(LEFT_FRONT: 0.0 kph, RIGHT_FRONT: 0.0 kph, LEFT_REAR: 0.0 kph, RIGHT_REAR: 0.0 kph)
 (1548862270.919991)  can0  083   [8]  05 CC 00 00 00 53 01 31 :: Unknown frame id 131 (0x83)
 (1548862270.922243)  can0  093   [8]  05 CC 00 00 00 0D 01 31 :: Unknown frame id 147 (0x93)
 (1548862270.926166)  can0  2B0   [8]  4D 00 00 07 F1 00 00 00 :: STEERING_ANGLE(STEERING_WHEEL_ANGLE: 7.7 degrees)
 (1548862270.928367)  can0  220   [8]  E9 03 07 04 00 00 34 10 :: BRAKE_PRESSURE(BRAKE_PRESSURE: 0.0 bar)
 (1548862270.931874)  can0  073   [8]  05 CC 00 00 00 04 04 01 :: Unknown frame id 115 (0x73)
 (1548862270.935794)  can0  0B9   [8]  00 04 00 00 00 00 00 00 :: Unknown frame id 185 (0xb9)
 (1548862270.936792)  can0  2B0   [8]  50 00 00 07 02 00 00 00 :: STEERING_ANGLE(STEERING_WHEEL_ANGLE: 8.0 degrees)
 (1548862270.938087)  can0  220   [8]  EA 03 06 04 00 00 36 10 :: BRAKE_PRESSURE(BRAKE_PRESSURE: 0.0 bar)
 (1548862270.939051)  can0  083   [8]  05 CC 00 00 00 53 01 31 :: Unknown frame id 131 (0x83)
 (1548862270.939052)  can0  4B0   [8]  00 00 00 00 00 00 00 00 :: WHEEL_SPEED(LEFT_FRONT: 0.0 kph, RIGHT_FRONT: 0.0 kph, LEFT_REAR: 0.0 kph, RIGHT_REAR: 0.0 kph)
 (1548862270.942100)  can0  093   [8]  05 CC 00 00 00 23 08 9F :: Unknown frame id 147 (0x93)
 (1548862270.946266)  can0  2B0   [8]  4D 00 00 07 D3 00 00 00 :: STEERING_ANGLE(STEERING_WHEEL_ANGLE: 7.7 degrees)
 (1548862270.948413)  can0  220   [8]  EB 03 05 04 00 00 39 10 :: BRAKE_PRESSURE(BRAKE_PRESSURE: 0.0 bar)
 (1548862270.951875)  can0  073   [8]  05 CC 00 00 00 2D 01 31 :: Unknown frame id 115 (0x73)
 (1548862270.955818)  can0  0B9   [8]  00 04 00 00 00 00 00 00 :: Unknown frame id 185 (0xb9)
 (1548862270.956840)  can0  2B0   [8]  51 00 00 07 74 00 00 00 :: STEERING_ANGLE(STEERING_WHEEL_ANGLE: 8.1 degrees)
