(1546909041.534734) can0 0B9#0004000000000000
(1546909041.536014) can0 2B0#80FF00075A000000
(1546909041.546043) can0 083#05CC000000040401
(1546909041.547107) can0 2B0#80FF00074B000000
(1546909041.548091) can0 093#05CC0000000D0131
(1546909041.549128) can0 073#05CC000000040401
(1546909041.554902) can0 0B9#0004000000000000
(1546909041.556119) can0 2B0#80FF00073C000000
(1546909041.566355) can0 083#05CC000000530131
(1546909041.567357) can0 2B0#80FF00072D000000
(1546909041.568379) can0 093#05CC0000000D0131
(1546909041.568380) can0 073#05CC0000002D0131
(1546909041.575291) can0 0B9#0004000000000000
(1546909041.576104) can0 2B0#80FF00071E000000
(1546909041.586159) can0 083#05CC000000530131
(1546909041.587191) can0 2B0#81FF00071F000000
(1546909041.588151) can0 093#05CC0000000D0131
(1546909041.589176) can0 073#05CC0000002D0131
(1546909041.595143) can0 0B9#0004000000000000
(1546909041.596177) can0 2B0#80FF0007F0000000
(1546909041.606196) can0 083#05CC000000000000
(1546909041.607196) can0 2B0#7FFF0007E1000000
(1546909041.608235) can0 093#05CC000000310804
(1546909041.608236) can0 073#05CC0000002D0131
(1546909041.615384) can0 0B9#0004000000000000
(1546909041.616408) can0 2B0#7FFF0007D2000000
(1546909041.623520) can0 2B0#81FF0007D3000000
(1546909041.626108) can0 083#05CC000000530131
(1546909041.627875) can0 093#05CC0000000D0131
(1546909041.629016) can0 073#05CC000000EA230A
(1546909041.635489) can0 0B9#0004000000000000
(1546909041.636517) can0 2B0#80FF0007B4000000
(1546909041.646213) can0 083#05CC000000530131
(1546909041.647093) can0 2B0#80FF0007A5000000
(1546909041.648230) can0 093#05CC0000000D0131
(1546909041.649232) can0 073#05CC0000002D0131
(1546909041.655558) can0 0B9#0004000000000000
(1546909041.656631) can0 2B0#7FFF000796000000
(1546909041.663433) can0 2B0#81FF000797000000
(1546909041.666200) can0 083#05CC0000000B1700
(1546909041.667922) can0 093#05CC0000000D0131
(1546909041.669031) can0 073#05CC0000002D0131
(1546909041.673565) can0 2B0#7FFF000778000000
(1546909041.675742) can0 0B9#0004000000000000
(1546909041.683541) can0 2B0#80FF000769000000
(1546909041.686230) can0 083#05CC000000530131
(1546909041.687996) can0 093#05CC0000000D0131
(1546909041.688998) can0 073#05CC000000CF089F
(1546909041.695752) can0 0B9#0004000000000000
(1546909041.696771) can0 2B0#7FFF00075A000000
(1546909041.706218) can0 083#05CC000000530131
(1546909041.707216) can0 2B0#81FF00075B000000
(1546909041.708255) can0 093#05CC0000000D0131
(1546909041.708256) can0 073#05CC0000002D0131
(1546909041.715938) can0 0B9#0004000000000000
(1546909041.716947) can0 2B0#80FF00073C000000
(1546909041.726087) can0 083#05CC000000000000
(1546909041.727231) can0 2B0#82FF00070D000000
(1546909041.728241) can0 093#05CC0000000D0131
(1546909041.729249) can0 073#05CC0000002D0131
(1546909041.733508) can0 2B0#82FF00073E000000
(1546909041.736037) can0 0B9#0004000000000000
(1546909041.743533) can0 2B0#80FF00070F000000
(1546909041.746193) can0 083#05CC000000530131
(1546909041.747999) can0 093#05CC000000E00B13
(1546909041.749006) can0 073#05CC0000002D0131
(1546909041.756223) can0 0B9#0004000000000000
(1546909041.757217) can0 2B0#7FFF0007F0000000
(1546909041.766224) can0 083#05CC000000530131
(1546909041.767239) can0 2B0#80FF0007E1000000
(1546909041.768264) can0 093#05CC0000009F0AE0
(1546909041.768265) can0 073#05CC0000002D0131
(1546909041.776233) can0 2B0#81FF0007C2000000
(1546909041.777411) can0 0B9#0004000000000000
(1546909041.783744) can0 2B0#7FFF0007C3000000
(1546909041.786233) can0 083#05CC000000089F0A
(1546909041.788024) can0 093#05CC0000000D0131
(1546909041.789024) can0 073#05CC0000002D0131
(1546909041.796359) can0 2B0#7FFF0007B4000000
(1546909041.797395) can0 0B9#0004000000000000
(1546909041.806257) can0 083#05CC000000530131
(1546909041.807212) can0 2B0#81FF0007B5000000
(1546909041.808173) can0 093#05CC0000000D0131
(1546909041.808174) can0 073#05CC0000002D0131
(1546909041.816431) can0 2B0#80FF000796000000
(1546909041.817467) can0 0B9#0004000000000000
(1546909041.826128) can0 083#05CC000000530131
(1546909041.827263) can0 2B0#80FF000787000000
(1546909041.828283) can0 093#05CC0000000D0131
(1546909041.828284) can0 073#05CC000000040401
(1546909041.836393) can0 2B0#81FF000768000000
(1546909041.837560) can0 0B9#0004000000000000
(1546909041.843569) can0 2B0#80FF000769000000
(1546909041.846236) can0 083#05CC00000089089F
(1546909041.848020) can0 093#05CC000000EFFF60
(1546909041.849040) can0 073#05CC0000002D0131
(1546909041.853640) can0 2B0#80FF00075A000000
(1546909041.857715) can0 0B9#0004000000000000
(1546909041.866278) can0 083#05CC000000530131
(1546909041.867297) can0 2B0#81FF00075B000000
(1546909041.868302) can0 093#05CC0000000D0131
(1546909041.868303) can0 073#05CC0000002D0131
(1546909041.873580) can0 2B0#82FF00071C000000
(1546909041.877855) can0 0B9#0004000000000000
(1546909041.886252) can0 083#05CC000000530131
(1546909041.887267) can0 2B0#81FF00073D000000
(1546909041.888292) can0 093#05CC0000000D0131
(1546909041.888293) can0 073#05CC0000002D0131
(1546909041.893527) can0 2B0#80FF00071E000000
(1546909041.897860) can0 0B9#0004000000000000
(1546909041.906259) can0 083#05CC000000000000
(1546909041.907273) can0 2B0#80FF00070F000000
(1546909041.908299) can0 093#05CC0000000D0131
(1546909041.908300) can0 073#05CC0000009F0AE0
(1546909041.916347) can0 2B0#80FF0007F0000000
(1546909041.917886) can0 0B9#0004000000000000
(1546909041.926167) can0 083#05CC000000530131
(1546909041.927305) can0 2B0#80FF0007E1000000
(1546909041.928325) can0 093#05CC0000000D0131
(1546909041.928329) can0 073#05CC0000002D0131
(1546909041.933647) can0 2B0#81FF0007C2000000
(1546909041.937924) can0 0B9#0004000000000000
(1546909041.943705) can0 2B0#7FFF0007C3000000
(1546909041.946273) can0 083#05CC000000530131
(1546909041.948065) can0 093#05CC0000000D0131
(1546909041.949084) can0 073#05CC0000002D0131
(1546909041.953805) can0 2B0#81FF0007A4000000
(1546909041.958135) can0 0B9#0004000000000000
(1546909041.966203) can0 083#05CC000000000000
(1546909041.967287) can0 2B0#81FF0007B5000000
(1546909041.968320) can0 093#05CC0000000D0131
(1546909041.968320) can0 073#05CC0000002D0131
(1546909041.973689) can0 2B0#80FF000796000000
(1546909041.978166) can0 0B9#0004000000000000
(1546909041.983643) can0 2B0#80FF000787000000
(1546909041.986249) can0 083#05CC000000530131
(1546909041.988059) can0 093#05CC00000022089F
(1546909041.989078) can0 073#05CC0000002D0131
(1546909041.993741) can0 2B0#81FF000768000000
(1546909041.998229) can0 0B9#0004000000000000
(1546909042.006282) can0 083#05CC000000530131
(1546909042.007297) can0 2B0#80FF000769000000
(1546909042.008300) can0 093#05CC0000000D0131
(1546909042.009157) can0 073#05CC0000002D0131
(1546909042.013807) can0 2B0#7FFF00075A000000
(1546909042.018525) can0 0B9#0004000000000000
(1546909042.023688) can0 2B0#80FF00074B000000
(1546909042.026128) can0 083#05CC000000000000
(1546909042.028081) can0 093#05CC0000000D0131
(1546909042.029116) can0 073#05CC0000002D0131
(1546909042.033792) can0 2B0#81FF00072C000000
(1546909042.038768) can0 0B9#0004000000000000
(1546909042.043677) can0 2B0#80FF00072D000000
(1546909042.046317) can0 083#05CC000000530131
(1546909042.047909) can0 093#05CC0000000D0131
(1546909042.048903) can0 073#05CC000000E00B8A
(1546909042.053903) can0 2B0#81FF00070E000000
(1546909042.058802) can0 0B9#0004000000000000
(1546909042.063763) can0 2B0#7FFF00070F000000
(1546909042.066239) can0 083#05CC000000530131
(1546909042.068090) can0 093#05CC0000000D0131
(1546909042.069108) can0 073#05CC0000002D0131
(1546909042.073782) can0 2B0#80FF0007F0000000
(1546909042.078952) can0 0B9#0004000000000000
(1546909042.083713) can0 2B0#80FF0007E1000000
(1546909042.086292) can0 083#05CC0000000B1700
(1546909042.088105) can0 093#05CC0000000D0131
(1546909042.089122) can0 073#05CC0000002D0131
(1546909042.093711) can0 2B0#81FF0007C2000000
(1546909042.099090) can0 0B9#0004000000000000
(1546909042.106322) can0 083#05CC000000530131
(1546909042.107335) can0 2B0#7FFF0007C3000000
(1546909042.108359) can0 093#05CC0000000D0131
(1546909042.108360) can0 073#05CC000000040401
(1546909042.113911) can0 2B0#81FF0007A4000000
(1546909042.119282) can0 0B9#0004000000000000
(1546909042.123846) can0 2B0#7FFF0007A5000000
(1546909042.126197) can0 083#05CC000000530131
(1546909042.128097) can0 093#05CC000000040401
(1546909042.129116) can0 073#05CC0000002D0131
(1546909042.136475) can0 2B0#81FF000786000000
(1546909042.139455) can0 0B9#0004000000000000
(1546909042.143754) can0 2B0#80FF000787000000
(1546909042.146256) can0 083#05CC000000000000
(1546909042.148125) can0 093#05CC0000000D0131
(1546909042.149143) can0 073#05CC0000002D0131
(1546909042.153843) can0 2B0#81FF000768000000
(1546909042.159541) can0 0B9#0004000000000000
(1546909042.166342) can0 083#05CC000000530131
(1546909042.167369) can0 2B0#80FF000769000000
(1546909042.168366) can0 093#05CC0000000D0131
(1546909042.168366) can0 073#05CC0000002D0131
(1546909042.173748) can0 2B0#80FF00075A000000
(1546909042.179755) can0 0B9#0004000000000000
(1546909042.183932) can0 2B0#80FF00074B000000
(1546909042.186312) can0 083#05CC000000530131
(1546909042.188107) can0 093#05CC0000000D0131
(1546909042.189127) can0 073#05CC000000000000
(1546909042.193752) can0 2B0#80FF00073C000000
(1546909042.199935) can0 0B9#0004000000000000
(1546909042.206196) can0 083#05CC000000089F0A
(1546909042.207235) can0 2B0#7FFF00072D000000
(1546909042.208208) can0 093#05CC0000000AE00B
(1546909042.209229) can0 073#05CC0000002D0131
(1546909042.213761) can0 2B0#80FF00071E000000
(1546909042.220076) can0 0B9#0004000000000000
(1546909042.223757) can0 2B0#81FF00071F000000
(1546909042.226247) can0 083#05CC000000530131
(1546909042.228025) can0 093#05CC0000000D0131
(1546909042.229136) can0 073#05CC0000002D0131
(1546909042.233898) can0 2B0#80FF0007F0000000
(1546909042.240293) can0 0B9#0004000000000000
(1546909042.243956) can0 2B0#80FF0007E1000000
(1546909042.246279) can0 083#05CC000000530131
(1546909042.248125) can0 093#05CC0000000D0131
(1546909042.249130) can0 073#05CC0000002D0131
(1546909042.253925) can0 2B0#7FFF0007D2000000
(1546909042.260229) can0 0B9#0004000000000000
(1546909042.263776) can0 2B0#80FF0007C3000000
(1546909042.266325) can0 083#05CC000000000000
(1546909042.268133) can0 093#05CC000000013108
(1546909042.269152) can0 073#05CC000000000000
(1546909042.273893) can0 2B0#7FFF0007B4000000
(1546909042.280594) can0 0B9#0004000000000000
(1546909042.283792) can0 2B0#80FF0007A5000000
(1546909042.286373) can0 083#05CC000000530131
(1546909042.288122) can0 093#05CC0000000D0131
(1546909042.289140) can0 073#05CC0000002D0131
(1546909042.293824) can0 2B0#81FF000786000000
(1546909042.300585) can0 0B9#0004000000000000
(1546909042.306202) can0 083#05CC000000530131
(1546909042.307237) can0 2B0#80FF000787000000
(1546909042.308399) can0 093#05CC0000000D0131
(1546909042.308400) can0 073#05CC0000002D0131
(1546909042.313881) can0 2B0#81FF000768000000
(1546909042.320825) can0 0B9#0004000000000000
(1546909042.323811) can0 2B0#80FF000769000000
(1546909042.326291) can0 083#05CC000000000000
(1546909042.328036) can0 093#05CC0000000D0131
(1546909042.329158) can0 073#05CC000000000000
(1546909042.333841) can0 2B0#81FF00074A000000
(1546909042.341001) can0 0B9#0004000000000000
(1546909042.343751) can0 2B0#80FF00074B000000
(1546909042.346374) can0 083#05CC000000530131
(1546909042.348073) can0 093#05CC000000130000
(1546909042.349092) can0 073#05CC0000002D0131
(1546909042.353804) can0 2B0#81FF00072C000000
(1546909042.361218) can0 0B9#0004000000000000
(1546909042.364056) can0 2B0#80FF00072D000000
(1546909042.366378) can0 083#05CC000000530131
(1546909042.368178) can0 093#05CC0000000D0131
(1546909042.369174) can0 073#05CC0000002D0131
(1546909042.373817) can0 2B0#80FF00071E000000
(1546909042.381367) can0 0B9#0004000000000000
(1546909042.383953) can0 2B0#7FFF00070F000000
(1546909042.386286) can0 083#05CC000000000000
(1546909042.388069) can0 093#05CC0000000D0131
(1546909042.389145) can0 073#05CC0000002D0131
(1546909042.393882) can0 2B0#80FF0007F0000000
(1546909042.401490) can0 0B9#0004000000000000
(1546909042.406382) can0 083#05CC000000530131
(1546909042.407402) can0 2B0#80FF0007E1000000
(1546909042.408420) can0 093#05CC000000013108
(1546909042.408421) can0 073#05CC000000310804
(1546909042.414074) can0 2B0#7FFF0007D2000000
(1546909042.421551) can0 0B9#0004000000000000
(1546909042.423993) can0 2B0#80FF0007C3000000
(1546909042.426253) can0 083#05CC000000530131
(1546909042.428157) can0 093#05CC0000000D0131
(1546909042.429146) can0 073#05CC0000002D0131
(1546909042.434020) can0 2B0#80FF0007B4000000
(1546909042.441724) can0 0B9#0004000000000000
(1546909042.443862) can0 2B0#80FF0007A5000000
(1546909042.446382) can0 083#05CC000000000000
(1546909042.448187) can0 093#05CC0000000D0131
(1546909042.449210) can0 073#05CC0000002D0131
(1546909042.454005) can0 2B0#80FF000796000000
(1546909042.461886) can0 0B9#0004000000000000
(1546909042.463827) can0 2B0#7FFF000787000000
(1546909042.466294) can0 083#05CC000000530131
(1546909042.468065) can0 093#05CC0000000D0131
(1546909042.469195) can0 073#05CC0000002D0131
(1546909042.473711) can0 2B0#80FF000778000000
(1546909042.481933) can0 0B9#0004000000000000
(1546909042.483993) can0 2B0#80FF000769000000
(1546909042.486396) can0 083#05CC000000530131
(1546909042.488182) can0 093#05CC000000000000
(1546909042.489185) can0 073#05CC0000002D0131
(1546909042.493849) can0 2B0#80FF00075A000000
(1546909042.501950) can0 0B9#0004000000000000
(1546909042.506256) can0 083#05CC000000DC0B17
(1546909042.507341) can0 2B0#7FFF00074B000000
(1546909042.508364) can0 093#05CC0000000D0131
(1546909042.509327) can0 073#05CC0000002D0131
(1546909042.513993) can0 2B0#7FFF00073C000000
(1546909042.522164) can0 0B9#0004000000000000
(1546909042.523863) can0 2B0#82FF00070D000000
(1546909042.526283) can0 083#05CC000000530131
(1546909042.528201) can0 093#05CC0000000D0131
(1546909042.529218) can0 073#05CC0000002D0131
(1546909042.534080) can0 2B0#7FFF00071E000000
(1546909042.542294) can0 0B9#0004000000000000
(1546909042.544020) can0 2B0#80FF00070F000000
(1546909042.546402) can0 083#05CC000000530131
(1546909042.548186) can0 093#05CC0000000D0131
(1546909042.549187) can0 073#05CC0000000B8A00
(1546909042.554073) can0 2B0#80FF0007F0000000
(1546909042.562494) can0 0B9#0004000000000000
(1546909042.563983) can0 2B0#81FF0007F1000000
(1546909042.566405) can0 083#05CC000000000000
(1546909042.568208) can0 093#05CC0000000D0131
(1546909042.569220) can0 073#05CC0000002D0131
(1546909042.573909) can0 2B0#82FF0007F2000000
(1546909042.582582) can0 0B9#0004000000000000
(1546909042.584100) can0 2B0#82FF0007E3000000
(1546909042.586440) can0 083#05CC000000530131
(1546909042.588201) can0 093#05CC0000000D0131
(1546909042.589227) can0 073#05CC0000002D0131
(1546909042.593941) can0 2B0#82FF000794000000
(1546909042.602734) can0 0B9#0004000000000000
(1546909042.606423) can0 083#05CC000000530131
(1546909042.607421) can0 2B0#80FF0007A5000000
(1546909042.608460) can0 093#05CC0000000D0131
(1546909042.608461) can0 073#05CC0000002D0131
(1546909042.613953) can0 2B0#80FF000796000000
(1546909042.622844) can0 0B9#0004000000000000
(1546909042.624113) can0 2B0#80FF000787000000
(1546909042.626282) can0 083#05CC000000089F0A
(1546909042.628225) can0 093#05CC000000000000
(1546909042.629241) can0 073#05CC0000002D0131
(1546909042.633935) can0 2B0#81FF000768000000
(1546909042.642748) can0 0B9#0004000000000000
(1546909042.644145) can0 2B0#80FF000769000000
(1546909042.646441) can0 083#05CC000000530131
(1546909042.648207) can0 093#05CC0000000D0131
(1546909042.649229) can0 073#05CC0000002D0131
(1546909042.653905) can0 2B0#81FF00074A000000
(1546909042.663048) can0 0B9#0004000000000000
(1546909042.664019) can0 2B0#7FFF00074B000000
(1546909042.666424) can0 083#05CC000000530131
(1546909042.668233) can0 093#05CC0000000D0131
(1546909042.669235) can0 073#05CC0000002D0131
(1546909042.674157) can0 2B0#81FF00072C000000
(1546909042.683244) can0 0B9#0004000000000000
(1546909042.684263) can0 2B0#80FF00072D000000
(1546909042.686431) can0 083#05CC000000000000
(1546909042.688244) can0 093#05CC0000000D0131
(1546909042.689243) can0 073#05CC000000089F0A
(1546909042.694024) can0 2B0#80FF00071E000000
(1546909042.703424) can0 0B9#0004000000000000
(1546909042.706467) can0 083#05CC000000530131
(1546909042.707500) can0 2B0#80FF00070F000000
(1546909042.708504) can0 093#05CC000000310804
(1546909042.708505) can0 073#05CC0000002D0131
(1546909042.714197) can0 2B0#80FF0007F0000000
(1546909042.723574) can0 0B9#0004000000000000
(1546909042.724570) can0 2B0#81FF0007F1000000
(1546909042.726309) can0 083#05CC000000530131
(1546909042.728263) can0 093#05CC0000000D0131
(1546909042.729258) can0 073#05CC0000002D0131
(1546909042.734063) can0 2B0#80FF0007D2000000
(1546909042.743677) can0 0B9#0004000000000000
(1546909042.744727) can0 2B0#81FF0007D3000000
(1546909042.746442) can0 083#05CC000000000000
(1546909042.748251) can0 093#05CC0000000D0131
(1546909042.749250) can0 073#05CC0000002D0131
(1546909042.753928) can0 2B0#80FF0007B4000000
(1546909042.763867) can0 0B9#0004000000000000
(1546909042.764944) can0 2B0#80FF0007A5000000
(1546909042.766472) can0 083#05CC000000530131
(1546909042.768236) can0 093#05CC0000000D0131
(1546909042.769254) can0 073#05CC000000A311F7
(1546909042.774100) can0 2B0#80FF000796000000
(1546909042.783973) can0 2B0#80FF000787000000
(1546909042.784990) can0 0B9#0004000000000000
(1546909042.786435) can0 083#05CC000000530131
(1546909042.788246) can0 093#05CC0000000D0131
(1546909042.789247) can0 073#05CC0000002D0131
(1546909042.794002) can0 2B0#81FF000768000000
(1546909042.804638) can0 0B9#0004000000000000
(1546909042.806443) can0 083#05CC000000000000
(1546909042.807370) can0 2B0#81FF000779000000
(1546909042.808465) can0 093#05CC0000000D0131
(1546909042.809406) can0 073#05CC0000002D0131
(1546909042.814063) can0 2B0#7FFF00075A000000
(1546909042.824097) can0 2B0#80FF00074B000000
(1546909042.825068) can0 0B9#0004000000000000
(1546909042.826353) can0 083#05CC000000530131
(1546909042.828265) can0 093#05CC0000000D0131
(1546909042.829269) can0 073#05CC000000CF089F
(1546909042.834043) can0 2B0#7FFF00073C000000
(1546909042.844022) can0 2B0#80FF00072D000000
(1546909042.845082) can0 0B9#0004000000000000
(1546909042.846482) can0 083#05CC000000530131
(1546909042.848247) can0 093#05CC000000E00B13
(1546909042.849249) can0 073#05CC0000002D0131
(1546909042.857148) can0 2B0#81FF00070E000000
(1546909042.864027) can0 2B0#80FF00070F000000
(1546909042.865265) can0 0B9#0004000000000000
(1546909042.866348) can0 083#05CC000000000000
(1546909042.868274) can0 093#05CC000000089F0A
(1546909042.869279) can0 073#05CC0000002D0131
(1546909042.873962) can0 2B0#80FF0007F0000000
(1546909042.884221) can0 2B0#81FF0007F1000000
(1546909042.885430) can0 0B9#0004000000000000
(1546909042.886493) can0 083#05CC000000530131
(1546909042.888262) can0 093#05CC0000000D0131
(1546909042.889267) can0 073#05CC0000002D0131
(1546909042.894190) can0 2B0#80FF0007D2000000
(1546909042.905485) can0 0B9#0004000000000000
(1546909042.906501) can0 083#05CC000000530131
(1546909042.907502) can0 2B0#7FFF0007C3000000
(1546909042.908523) can0 093#05CC0000000D0131
(1546909042.908524) can0 073#05CC000000CF089F
(1546909042.917055) can0 2B0#7FFF0007B4000000
(1546909042.924078) can0 2B0#7FFF0007A5000000
(1546909042.925543) can0 0B9#0004000000000000
(1546909042.926677) can0 083#05CC000000DC0B17
(1546909042.928166) can0 093#05CC0000000D0131
(1546909042.929303) can0 073#05CC0000002D0131
(1546909042.934227) can0 2B0#80FF000796000000
(1546909042.944066) can0 2B0#80FF000787000000
(1546909042.945767) can0 0B9#0004000000000000
(1546909042.946765) can0 083#05CC000000530131
(1546909042.948271) can0 093#05CC000000EFFF60
(1546909042.949290) can0 073#05CC0000002D0131
(1546909042.954070) can0 2B0#7FFF000778000000
(1546909042.964241) can0 2B0#81FF000779000000
(1546909042.965932) can0 0B9#0004000000000000
(1546909042.966924) can0 083#05CC000000530131
(1546909042.968299) can0 093#05CC0000000D0131
(1546909042.969318) can0 073#05CC000000A311F7
(1546909042.974261) can0 2B0#80FF00075A000000
(1546909042.984246) can0 2B0#80FF00074B000000
(1546909042.985979) can0 0B9#0004000000000000
(1546909042.987167) can0 083#05CC00000089089F
(1546909042.988123) can0 093#05CC0000000D0131
(1546909042.989141) can0 073#05CC0000002D0131
(1546909042.994100) can0 2B0#81FF00072C000000
(1546909043.006277) can0 0B9#0004000000000000
(1546909043.007354) can0 083#05CC000000530131
(1546909043.008352) can0 2B0#80FF00072D000000
(1546909043.008353) can0 093#05CC0000000D0131
(1546909043.009221) can0 073#05CC0000002D0131
(1546909043.014040) can0 2B0#80FF00071E000000
(1546909043.024289) can0 2B0#81FF00071F000000
(1546909043.026249) can0 0B9#0004000000000000
(1546909043.027385) can0 083#05CC000000000000
(1546909043.028411) can0 093#05CC00000022089F
(1546909043.029423) can0 073#05CC0000002D0131
(1546909043.034269) can0 2B0#80FF0007F0000000
(1546909043.044267) can0 2B0#80FF0007E1000000
(1546909043.046505) can0 083#05CC000000530131
(1546909043.047518) can0 0B9#0004000000000000
(1546909043.048522) can0 093#05CC0000000D0131
(1546909043.049539) can0 073#05CC000000089F0A
(1546909043.054216) can0 2B0#80FF0007D2000000
(1546909043.064296) can0 2B0#80FF0007C3000000
(1546909043.066512) can0 083#05CC000000000000
(1546909043.067527) can0 0B9#0004000000000000
(1546909043.068550) can0 093#05CC0000000D0131
(1546909043.069545) can0 073#05CC0000002D0131
(1546909043.074101) can0 2B0#80FF0007B4000000
(1546909043.084266) can0 2B0#80FF0007A5000000
(1546909043.086519) can0 083#05CC000000530131
(1546909043.087535) can0 0B9#0004000000000000
(1546909043.088567) can0 093#05CC00000022089F
(1546909043.088568) can0 073#05CC0000002D0131
(1546909043.094354) can0 2B0#80FF000796000000
(1546909043.106405) can0 083#05CC000000530131
(1546909043.107520) can0 0B9#0004000000000000
(1546909043.108564) can0 2B0#80FF000787000000
(1546909043.108565) can0 093#05CC0000000D0131
(1546909043.108566) can0 073#05CC0000002D0131
(1546909043.114279) can0 2B0#80FF000778000000
(1546909043.124325) can0 2B0#80FF000769000000
(1546909043.126417) can0 083#05CC000000040401
(1546909043.127552) can0 0B9#0004000000000000
(1546909043.128392) can0 093#05CC0000000D0131
(1546909043.128393) can0 073#05CC0000002D0131
(1546909043.134057) can0 2B0#80FF00075A000000
(1546909043.144190) can0 2B0#80FF00074B000000
(1546909043.146472) can0 083#05CC000000530131
(1546909043.147465) can0 0B9#0004000000000000
(1546909043.148505) can0 093#05CC0000000D0131
(1546909043.148506) can0 073#05CC0000002D0131
(1546909043.157187) can0 2B0#80FF00073C000000
(1546909043.164148) can0 2B0#81FF00073D000000
(1546909043.166529) can0 083#05CC000000530131
(1546909043.167735) can0 0B9#0004000000000000
(1546909043.168736) can0 093#05CC0000000D0131
(1546909043.168737) can0 073#05CC0000002D0131
(1546909043.174340) can0 2B0#80FF00071E000000
(1546909043.184305) can0 2B0#80FF00070F000000
(1546909043.186541) can0 083#05CC000000000000
(1546909043.187836) can0 0B9#0004000000000000
(1546909043.188887) can0 093#05CC0000000D0131
(1546909043.188888) can0 073#05CC0000000AE00B
(1546909043.194290) can0 2B0#80FF0007F0000000
(1546909043.206543) can0 083#05CC000000530131
(1546909043.207565) can0 2B0#80FF0007E1000000
(1546909043.208562) can0 0B9#0004000000000000
(1546909043.208563) can0 093#05CC0000000D0131
(1546909043.209472) can0 073#05CC0000002D0131
(1546909043.214175) can0 2B0#80FF0007D2000000
(1546909043.224185) can0 2B0#80FF0007C3000000
(1546909043.226430) can0 083#05CC000000530131
(1546909043.228342) can0 093#05CC0000000D0131
(1546909043.229360) can0 0B9#0004000000000000
(1546909043.229361) can0 073#05CC0000002D0131
(1546909043.234363) can0 2B0#7FFF0007B4000000
(1546909043.244257) can0 2B0#80FF0007A5000000
(1546909043.246560) can0 083#05CC000000DC0B17
(1546909043.248348) can0 093#05CC0000000D0131
(1546909043.249375) can0 0B9#0004000000000000
(1546909043.249376) can0 073#05CC0000002D0131
(1546909043.254380) can0 2B0#81FF000786000000
(1546909043.264341) can0 2B0#80FF000787000000
(1546909043.266568) can0 083#05CC000000530131
(1546909043.268360) can0 093#05CC0000000D0131
(1546909043.269361) can0 073#05CC0000002D0131
(1546909043.269362) can0 0B9#0004000000000000
(1546909043.274388) can0 2B0#80FF000778000000
(1546909043.284201) can0 2B0#80FF000769000000
(1546909043.286562) can0 083#05CC000000530131
(1546909043.288346) can0 093#05CC00000022089F
(1546909043.289389) can0 073#05CC0000002D0131
(1546909043.289390) can0 0B9#0004000000000000
(1546909043.294411) can0 2B0#80FF00075A000000
(1546909043.306411) can0 083#05CC000000170000
(1546909043.307518) can0 2B0#80FF00074B000000
(1546909043.308543) can0 093#05CC0000000D0131
(1546909043.308543) can0 073#05CC0000002D0131
(1546909043.309530) can0 0B9#0004000000000000
(1546909043.314447) can0 2B0#80FF00073C000000
(1546909043.324205) can0 2B0#80FF00072D000000
(1546909043.326511) can0 083#05CC000000530131
(1546909043.328304) can0 093#05CC0000000D0131
(1546909043.329331) can0 073#05CC0000000AE00B
(1546909043.329332) can0 0B9#0004000000000000
(1546909043.334351) can0 2B0#81FF00070E000000
(1546909043.344287) can0 2B0#80FF00070F000000
(1546909043.346507) can0 083#05CC000000530131
(1546909043.348315) can0 093#05CC000000602208
(1546909043.349255) can0 073#05CC0000002D0131
(1546909043.349256) can0 0B9#0004000000000000
(1546909043.357125) can0 2B0#80FF0007F0000000
(1546909043.364231) can0 2B0#80FF0007E1000000
(1546909043.366515) can0 083#05CC000000089F0A
(1546909043.368303) can0 093#05CC0000000D0131
(1546909043.369323) can0 073#05CC0000002D0131
(1546909043.370364) can0 0B9#0004000000000000
(1546909043.374383) can0 2B0#80FF0007D2000000
(1546909043.384433) can0 2B0#80FF0007C3000000
(1546909043.386582) can0 083#05CC000000530131
(1546909043.388388) can0 093#05CC0000000D0131
(1546909043.389391) can0 073#05CC0000002D0131
(1546909043.390415) can0 0B9#0004000000000000
(1546909043.394258) can0 2B0#81FF0007A4000000
(1546909043.406588) can0 083#05CC000000530131
(1546909043.407582) can0 2B0#80FF0007A5000000
(1546909043.408627) can0 093#05CC0000000D0131
(1546909043.408628) can0 073#05CC000000A311F7
(1546909043.409770) can0 0B9#0004000000000000
(1546909043.414458) can0 2B0#80FF000796000000
(1546909043.424406) can0 2B0#80FF000787000000
(1546909043.426578) can0 083#05CC000000AA8908
(1546909043.428404) can0 093#05CC000000FF6022
(1546909043.429408) can0 073#05CC0000002D0131
(1546909043.430318) can0 0B9#0004000000000000
(1546909043.434265) can0 2B0#80FF000778000000
(1546909043.444293) can0 2B0#80FF000769000000
(1546909043.446466) can0 083#05CC000000040401
(1546909043.448414) can0 093#05CC0000000D0131
(1546909043.449433) can0 073#05CC0000002D0131
(1546909043.450440) can0 0B9#0004000000000000
(1546909043.457282) can0 2B0#7FFF00075A000000
(1546909043.464294) can0 2B0#80FF00074B000000
(1546909043.466619) can0 083#05CC000000530131
(1546909043.468399) can0 093#05CC0000000D0131
(1546909043.469427) can0 073#05CC0000009F0AE0
(1546909043.470418) can0 0B9#0004000000000000
(1546909043.474310) can0 2B0#80FF00073C000000
(1546909043.484499) can0 2B0#7FFF00072D000000
(1546909043.486597) can0 083#05CC000000530131
(1546909043.488406) can0 093#05CC0000000D0131
(1546909043.489353) can0 073#05CC0000002D0131
(1546909043.490433) can0 0B9#0004000000000000
(1546909043.494471) can0 2B0#80FF00071E000000
(1546909043.506611) can0 083#05CC000000000000
(1546909043.507671) can0 2B0#80FF00070F000000
(1546909043.508670) can0 093#05CC0000000D0131
(1546909043.508671) can0 073#05CC0000002D0131
(1546909043.510450) can0 0B9#0004000000000000
(1546909043.514403) can0 2B0#80FF0007F0000000
(1546909043.524482) can0 2B0#81FF0007F1000000
(1546909043.526510) can0 083#05CC000000530131
(1546909043.528445) can0 093#05CC0000000D0131
(1546909043.529444) can0 073#05CC0000002D0131
(1546909043.530495) can0 0B9#0004000000000000
(1546909043.534368) can0 2B0#81FF0007C2000000
(1546909043.544519) can0 2B0#81FF0007D3000000
(1546909043.546565) can0 083#05CC000000530131
(1546909043.548350) can0 093#05CC0000000D0131
(1546909043.549380) can0 073#05CC000000CF089F
(1546909043.550485) can0 0B9#0004000000000000
(1546909043.557228) can0 2B0#7FFF0007B4000000
(1546909043.564324) can0 2B0#80FF0007A5000000
(1546909043.566609) can0 083#05CC00000088AA89
(1546909043.568418) can0 093#05CC00000022089F
(1546909043.569422) can0 073#05CC0000002D0131
(1546909043.570712) can0 0B9#0004000000000000
(1546909043.574326) can0 2B0#80FF000796000000
(1546909043.584513) can0 2B0#80FF000787000000
(1546909043.586620) can0 083#05CC000000530131
(1546909043.588428) can0 093#05CC0000000D0131
(1546909043.589433) can0 073#05CC0000002D0131
(1546909043.590706) can0 0B9#0004000000000000
(1546909043.594408) can0 2B0#81FF000768000000
(1546909043.606634) can0 083#05CC000000530131
(1546909043.607644) can0 2B0#80FF000769000000
(1546909043.608571) can0 093#05CC0000000D0131
(1546909043.609567) can0 073#05CC00000011F7CF
(1546909043.610861) can0 0B9#0004000000000000
(1546909043.614322) can0 2B0#81FF00074A000000
(1546909043.624548) can0 2B0#80FF00074B000000
(1546909043.626503) can0 083#05CC000000530131
(1546909043.628446) can0 093#05CC0000000D0131
(1546909043.629444) can0 073#05CC0000002D0131
(1546909043.631076) can0 0B9#0004000000000000
(1546909043.634585) can0 2B0#82FF00071C000000
(1546909043.644514) can0 2B0#80FF00072D000000
(1546909043.646644) can0 083#05CC000000530131
(1546909043.648370) can0 093#05CC0000000D0131
(1546909043.649452) can0 073#05CC0000002D0131
(1546909043.651242) can0 0B9#0004000000000000
(1546909043.657279) can0 2B0#80FF00071E000000
(1546909043.664470) can0 2B0#80FF00070F000000
(1546909043.666638) can0 083#05CC000000530131
(1546909043.668459) can0 093#05CC0000000D0131
(1546909043.669464) can0 073#05CC0000002D0131
(1546909043.671247) can0 0B9#0004000000000000
(1546909043.674553) can0 2B0#7FFF0007F0000000
(1546909043.684491) can0 2B0#82FF0007C1000000
(1546909043.686641) can0 083#05CC0000000B1700
(1546909043.688391) can0 093#05CC0000000D0131
(1546909043.689448) can0 073#05CC000000F7CF08
(1546909043.691470) can0 0B9#0004000000000000
(1546909043.694526) can0 2B0#82FF0007F2000000
(1546909043.706629) can0 083#05CC000000530131
(1546909043.707865) can0 2B0#80FF0007C3000000
(1546909043.708894) can0 093#05CC000000040401
(1546909043.708895) can0 073#05CC0000002D0131
(1546909043.711449) can0 0B9#0004000000000000
(1546909043.714613) can0 2B0#80FF0007B4000000
(1546909043.724547) can0 2B0#80FF0007A5000000
(1546909043.726534) can0 083#05CC000000530131
(1546909043.728488) can0 093#05CC0000000D0131
(1546909043.729485) can0 073#05CC0000002D0131
(1546909043.731594) can0 0B9#0004000000000000
(1546909043.734389) can0 2B0#80FF000796000000
(1546909043.744497) can0 2B0#80FF000787000000
(1546909043.746642) can0 083#05CC000000530131
(1546909043.748414) can0 093#05CC0000000D0131
(1546909043.749497) can0 073#05CC0000002D0131
(1546909043.751751) can0 0B9#0004000000000000
(1546909043.757396) can0 2B0#80FF000778000000
(1546909043.764386) can0 2B0#81FF000779000000
(1546909043.766676) can0 083#05CC000000530131
(1546909043.768400) can0 093#05CC0000000D0131
(1546909043.769481) can0 073#05CC0000002D0131
(1546909043.771965) can0 0B9#0004000000000000
(1546909043.774592) can0 2B0#80FF00075A000000
(1546909043.784573) can0 2B0#80FF00074B000000
(1546909043.786666) can0 083#05CC000000530131
(1546909043.788413) can0 093#05CC000000130000
(1546909043.789469) can0 073#05CC0000002D0131
(1546909043.792025) can0 0B9#0004000000000000
(1546909043.794536) can0 2B0#81FF00072C000000
(1546909043.806539) can0 083#05CC000000000000
(1546909043.807610) can0 2B0#81FF00073D000000
(1546909043.808686) can0 093#05CC0000000D0131
(1546909043.809569) can0 073#05CC0000002D0131
(1546909043.812238) can0 0B9#0004000000000000
(1546909043.814630) can0 2B0#80FF00071E000000
(1546909043.824538) can0 2B0#80FF00070F000000
(1546909043.826527) can0 083#05CC000000530131
(1546909043.828434) can0 093#05CC0000000D0131
(1546909043.829510) can0 073#05CC000000089F0A
(1546909043.832304) can0 0B9#0004000000000000
(1546909043.834458) can0 2B0#81FF0007E0000000
(1546909043.844642) can0 2B0#80FF0007E1000000
(1546909043.846686) can0 083#05CC000000530131
(1546909043.848431) can0 093#05CC0000000B1300
(1546909043.849493) can0 073#05CC0000002D0131
(1546909043.852340) can0 0B9#0004000000000000
(1546909043.854651) can0 2B0#80FF0007D2000000
(1546909043.864569) can0 2B0#80FF0007C3000000
(1546909043.866672) can0 083#05CC000000040401
(1546909043.868438) can0 093#05CC0000000D0131
(1546909043.869501) can0 073#05CC0000002D0131
(1546909043.872452) can0 0B9#0004000000000000
(1546909043.874676) can0 2B0#80FF0007B4000000
(1546909043.884450) can0 2B0#81FF0007B5000000
(1546909043.886681) can0 083#05CC000000530131
(1546909043.888458) can0 093#05CC0000000D0131
(1546909043.889511) can0 073#05CC0000002D0131
(1546909043.892417) can0 0B9#0004000000000000
(1546909043.894705) can0 2B0#81FF000786000000
(1546909043.906694) can0 083#05CC000000530131
(1546909043.907708) can0 2B0#81FF000797000000
(1546909043.908753) can0 093#05CC0000000D0131
(1546909043.908754) can0 073#05CC0000002D0131
(1546909043.912490) can0 0B9#0004000000000000
(1546909043.914752) can0 2B0#82FF000758000000
(1546909043.924459) can0 2B0#81FF000779000000
(1546909043.926528) can0 083#05CC000000530131
(1546909043.928393) can0 093#05CC000000000000
(1546909043.929500) can0 073#05CC0000002D0131
(1546909043.932557) can0 0B9#0004000000000000
(1546909043.934543) can0 2B0#81FF00074A000000
(1546909043.944652) can0 2B0#80FF00074B000000
(1546909043.946614) can0 083#05CC000000530131
(1546909043.948409) can0 093#05CC0000000D0131
(1546909043.949533) can0 073#05CC0000002D0131
(1546909043.952729) can0 0B9#0004000000000000
(1546909043.957523) can0 2B0#81FF00072C000000
(1546909043.964674) can0 2B0#82FF00070D000000
(1546909043.966639) can0 083#05CC000000530131
(1546909043.968483) can0 093#05CC0000000D0131
(1546909043.969542) can0 073#05CC000000310804
(1546909043.972888) can0 0B9#0004000000000000
(1546909043.974632) can0 2B0#81FF00070E000000
(1546909043.984457) can0 2B0#82FF00072F000000
(1546909043.986700) can0 083#05CC00000088AA89
(1546909043.988491) can0 093#05CC0000000D0131
(1546909043.989514) can0 073#05CC0000002D0131
(1546909043.992905) can0 0B9#0004000000000000
(1546909043.994595) can0 2B0#80FF0007F0000000
(1546909044.006716) can0 083#05CC000000530131
(1546909044.007746) can0 2B0#80FF0007E1000000
(1546909044.008693) can0 093#05CC000000310804
(1546909044.008694) can0 073#05CC0000002D0131
(1546909044.013189) can0 0B9#0004000000000000
(1546909044.014694) can0 2B0#82FF0007F2000000
(1546909044.024628) can0 2B0#7FFF0007C3000000
(1546909044.026597) can0 083#05CC000000530131
(1546909044.028507) can0 093#05CC0000000D0131
(1546909044.029443) can0 073#05CC0000002D0131
(1546909044.033323) can0 0B9#0004000000000000
(1546909044.034638) can0 2B0#81FF0007A4000000
(1546909044.044534) can0 2B0#7FFF0007A5000000
(1546909044.046727) can0 083#05CC000000530131
(1546909044.048515) can0 093#05CC0000000D0131
(1546909044.049539) can0 073#05CC000000000000
(1546909044.053544) can0 0B9#0004000000000000
(1546909044.054551) can0 2B0#80FF000796000000
(1546909044.064521) can0 2B0#7FFF000787000000
(1546909044.066713) can0 083#05CC000000530131
(1546909044.068524) can0 093#05CC000000000000
(1546909044.069547) can0 073#05CC0000002D0131
(1546909044.073719) can0 0B9#0004000000000000
(1546909044.074733) can0 2B0#7FFF000778000000
(1546909044.084722) can0 2B0#81FF000779000000
(1546909044.086742) can0 083#05CC000000170000
(1546909044.088513) can0 093#05CC0000000D0131
(1546909044.089552) can0 073#05CC0000002D0131
(1546909044.093736) can0 0B9#0004000000000000
(1546909044.094826) can0 2B0#82FF00077A000000
(1546909044.106755) can0 083#05CC000000530131
(1546909044.108004) can0 2B0#80FF00074B000000
(1546909044.108928) can0 093#05CC0000000D0131
(1546909044.108929) can0 073#05CC0000008A0000
(1546909044.113961) can0 0B9#0004000000000000
(1546909044.114977) can0 2B0#80FF00073C000000
(1546909044.124737) can0 2B0#82FF00070D000000
(1546909044.126616) can0 083#05CC000000530131
(1546909044.128529) can0 093#05CC0000000D0131
(1546909044.129490) can0 073#05CC0000002D0131
(1546909044.133924) can0 0B9#0004000000000000
(1546909044.135050) can0 2B0#80FF00071E000000
(1546909044.144665) can0 2B0#80FF00070F000000
(1546909044.146725) can0 083#05CC000000530131
(1546909044.148526) can0 093#05CC0000000D0131
(1546909044.149557) can0 073#05CC0000002D0131
(1546909044.154193) can0 0B9#0004000000000000
(1546909044.157694) can0 2B0#80FF0007F0000000
(1546909044.164698) can0 2B0#80FF0007E1000000
(1546909044.166757) can0 083#05CC000000530131
(1546909044.168545) can0 093#05CC0000000D0131
(1546909044.169598) can0 073#05CC0000002D0131
(1546909044.174383) can0 0B9#0004000000000000
(1546909044.175397) can0 2B0#81FF0007C2000000
(1546909044.184699) can0 2B0#81FF0007D3000000
(1546909044.186745) can0 083#05CC000000530131
(1546909044.188552) can0 093#05CC0000000D0131
(1546909044.189573) can0 073#05CC000000000000
(1546909044.194331) can0 0B9#0004000000000000
(1546909044.195471) can0 2B0#82FF000794000000
(1546909044.206755) can0 083#05CC000000AA8908
(1546909044.207769) can0 2B0#80FF0007A5000000
(1546909044.208767) can0 093#05CC0000000B1300
(1546909044.209660) can0 073#05CC0000002D0131
(1546909044.214466) can0 0B9#0004000000000000
(1546909044.215504) can0 2B0#80FF000796000000
(1546909044.224586) can0 2B0#81FF000797000000
(1546909044.226617) can0 083#05CC000000530131
(1546909044.228571) can0 093#05CC0000000D0131
(1546909044.229590) can0 073#05CC000000000000
(1546909044.234572) can0 0B9#0004000000000000
(1546909044.235477) can0 2B0#81FF000768000000
(1546909044.244724) can0 2B0#82FF000749000000
(1546909044.246762) can0 083#05CC000000530131
(1546909044.248569) can0 093#05CC0000000D0131
(1546909044.249602) can0 073#05CC0000002D0131
(1546909044.254607) can0 2B0#7FFF00075A000000
(1546909044.255627) can0 0B9#0004000000000000
(1546909044.264794) can0 2B0#80FF00074B000000
(1546909044.266778) can0 083#05CC000000000000
(1546909044.268576) can0 093#05CC0000000D0131
(1546909044.269608) can0 073#05CC0000002D0131
(1546909044.274826) can0 2B0#7FFF00073C000000
(1546909044.275839) can0 0B9#0004000000000000
(1546909044.284763) can0 2B0#80FF00072D000000
(1546909044.286784) can0 083#05CC000000530131
(1546909044.288581) can0 093#05CC000000040401
(1546909044.289615) can0 073#05CC0000002D0131
(1546909044.294789) can0 2B0#81FF00070E000000
(1546909044.295804) can0 0B9#0004000000000000
(1546909044.306603) can0 083#05CC000000530131
(1546909044.307676) can0 2B0#81FF00071F000000
(1546909044.308673) can0 093#05CC0000000D0131
(1546909044.309690) can0 073#05CC0000002D0131
(1546909044.314595) can0 2B0#80FF0007F0000000
(1546909044.315729) can0 0B9#0004000000000000
(1546909044.324842) can0 2B0#80FF0007E1000000
(1546909044.326718) can0 083#05CC000000040401
(1546909044.328599) can0 093#05CC0000000D0131
(1546909044.329634) can0 073#05CC000000310804
(1546909044.334822) can0 2B0#80FF0007D2000000
(1546909044.335925) can0 0B9#0004000000000000
(1546909044.344847) can0 2B0#80FF0007C3000000
(1546909044.346812) can0 083#05CC000000530131
(1546909044.348581) can0 093#05CC0000000D0131
(1546909044.349597) can0 073#05CC0000002D0131
(1546909044.356085) can0 0B9#0004000000000000
(1546909044.357524) can0 2B0#80FF0007B4000000
(1546909044.364798) can0 2B0#80FF0007A5000000
(1546909044.366798) can0 083#05CC000000530131
(1546909044.368482) can0 093#05CC0000000D0131
(1546909044.369605) can0 073#05CC0000002D0131
(1546909044.374652) can0 2B0#80FF000796000000
(1546909044.376121) can0 0B9#0004000000000000
(1546909044.384760) can0 2B0#80FF000787000000
(1546909044.386783) can0 083#05CC000000000000
(1546909044.388575) can0 093#05CC0000000D0131
(1546909044.389635) can0 073#05CC0000002D0131
(1546909044.394846) can0 2B0#81FF000768000000
(1546909044.396248) can0 0B9#0004000000000000
(1546909044.406688) can0 083#05CC000000530131
(1546909044.407787) can0 2B0#80FF000769000000
(1546909044.408849) can0 093#05CC0000000D0131
(1546909044.408850) can0 073#05CC000000000000
(1546909044.414617) can0 2B0#80FF00075A000000
(1546909044.416245) can0 0B9#0004000000000000
(1546909044.424758) can0 2B0#81FF00075B000000
(1546909044.426676) can0 083#05CC000000530131
(1546909044.428472) can0 093#05CC000000089F0A
(1546909044.429493) can0 073#05CC0000002D0131
(1546909044.434721) can0 2B0#80FF00073C000000
(1546909044.436405) can0 0B9#0004000000000000
(1546909044.444673) can0 2B0#80FF00072D000000
(1546909044.446651) can0 083#05CC000000530131
(1546909044.448501) can0 093#05CC0000000D0131
(1546909044.449523) can0 073#05CC0000002D0131
(1546909044.456674) can0 0B9#0004000000000000
(1546909044.457755) can0 2B0#80FF00071E000000
(1546909044.464757) can0 2B0#7FFF00070F000000
(1546909044.466758) can0 083#05CC000000530131
(1546909044.468509) can0 093#05CC0000000D0131
(1546909044.469533) can0 073#05CC0000002D0131
(1546909044.474748) can0 2B0#81FF0007E0000000
(1546909044.476799) can0 0B9#0004000000000000
(1546909044.484721) can0 2B0#80FF0007E1000000
(1546909044.486766) can0 083#05CC000000530131
(1546909044.488573) can0 093#05CC00000022089F
(1546909044.489574) can0 073#05CC000000000000
(1546909044.494747) can0 2B0#80FF0007D2000000
(1546909044.497017) can0 0B9#0004000000000000
(1546909044.506754) can0 083#05CC000000170000
(1546909044.508019) can0 2B0#81FF0007D3000000
(1546909044.508996) can0 093#05CC0000000D0131
(1546909044.508997) can0 073#05CC0000002D0131
(1546909044.514754) can0 2B0#80FF0007B4000000
(1546909044.517083) can0 0B9#0004000000000000
(1546909044.524685) can0 2B0#80FF0007A5000000
(1546909044.526730) can0 083#05CC000000530131
(1546909044.528595) can0 093#05CC0000000D0131
(1546909044.529612) can0 073#05CC0000002D0131
(1546909044.534763) can0 2B0#80FF000796000000
(1546909044.537208) can0 0B9#0004000000000000
(1546909044.544787) can0 2B0#80FF000787000000
(1546909044.546766) can0 083#05CC000000530131
(1546909044.548589) can0 093#05CC0000000D0131
(1546909044.549547) can0 073#05CC000000000000
(1546909044.557301) can0 0B9#0004000000000000
(1546909044.558285) can0 2B0#80FF000778000000
(1546909044.564802) can0 2B0#7FFF000769000000
(1546909044.566775) can0 083#05CC000000089F0A
(1546909044.568594) can0 093#05CC000000EFFF60
(1546909044.569605) can0 073#05CC0000002D0131
(1546909044.574762) can0 2B0#81FF00074A000000
(1546909044.577475) can0 0B9#0004000000000000
(1546909044.584742) can0 2B0#7FFF00074B000000
(1546909044.586863) can0 083#05CC000000530131
(1546909044.588624) can0 093#05CC0000000D0131
(1546909044.589698) can0 073#05CC0000002D0131
(1546909044.594748) can0 2B0#80FF00073C000000
(1546909044.597828) can0 0B9#0004000000000000
(1546909044.606797) can0 083#05CC000000530131
(1546909044.607998) can0 2B0#80FF00072D000000
(1546909044.608909) can0 093#05CC0000000D0131
(1546909044.608913) can0 073#05CC0000002D0131
(1546909044.614634) can0 2B0#81FF00070E000000
(1546909044.617921) can0 0B9#0004000000000000
(1546909044.625110) can0 2B0#80FF00070F000000
(1546909044.626781) can0 083#05CC000000AA8908
(1546909044.628628) can0 093#05CC0000000D0131
(1546909044.629680) can0 073#05CC000000310804
(1546909044.634905) can0 2B0#80FF0007F0000000
(1546909044.637955) can0 0B9#0004000000000000
(1546909044.644761) can0 2B0#80FF0007E1000000
(1546909044.646790) can0 083#05CC000000040401
(1546909044.648638) can0 093#05CC000000089F0A
(1546909044.649706) can0 073#05CC0000002D0131
(1546909044.657728) can0 2B0#80FF0007D2000000
(1546909044.658738) can0 0B9#0004000000000000
(1546909044.664959) can0 2B0#81FF0007D3000000
(1546909044.666880) can0 083#05CC000000530131
(1546909044.668650) can0 093#05CC0000000D0131
(1546909044.669708) can0 073#05CC0000002D0131
(1546909044.674948) can0 2B0#81FF0007A4000000
(1546909044.678434) can0 0B9#0004000000000000
(1546909044.684809) can0 2B0#82FF000785000000
(1546909044.686814) can0 083#05CC000000530131
(1546909044.688657) can0 093#05CC0000000D0131
(1546909044.689716) can0 073#05CC0000002D0131
(1546909044.694863) can0 2B0#7FFF000796000000
(1546909044.698530) can0 0B9#0004000000000000
(1546909044.706797) can0 083#05CC000000000000
(1546909044.708355) can0 2B0#80FF000787000000
(1546909044.709313) can0 093#05CC00000022089F
(1546909044.709314) can0 073#05CC0000002D0131
(1546909044.714922) can0 2B0#80FF000778000000
(1546909044.718738) can0 0B9#0004000000000000
(1546909044.724902) can0 2B0#81FF000779000000
(1546909044.726737) can0 083#05CC000000530131
(1546909044.728672) can0 093#05CC0000000D0131
(1546909044.729695) can0 073#05CC0000002D0131
(1546909044.735052) can0 2B0#80FF00075A000000
(1546909044.738929) can0 0B9#0004000000000000
(1546909044.746808) can0 083#05CC000000530131
(1546909044.747952) can0 2B0#80FF00074B000000
(1546909044.748939) can0 093#05CC0000000D0131
(1546909044.748940) can0 073#05CC0000002D0131
(1546909044.757696) can0 2B0#7FFF00073C000000
(1546909044.758998) can0 0B9#0004000000000000
(1546909044.764843) can0 2B0#80FF00072D000000
(1546909044.766816) can0 083#05CC00000088AA89
(1546909044.768687) can0 093#05CC0000000D0131
(1546909044.769711) can0 073#05CC000000E00B8A
(1546909044.774945) can0 2B0#81FF00070E000000
(1546909044.779032) can0 0B9#0004000000000000
(1546909044.785135) can0 2B0#81FF00071F000000
(1546909044.786830) can0 083#05CC000000530131
(1546909044.788698) can0 093#05CC0000000D0131
(1546909044.789703) can0 073#05CC0000002D0131
(1546909044.795081) can0 2B0#82FF0007D0000000
(1546909044.799063) can0 0B9#0004000000000000
(1546909044.806835) can0 083#05CC000000530131
(1546909044.807840) can0 2B0#80FF0007E1000000
(1546909044.808837) can0 093#05CC0000000D0131
(1546909044.808838) can0 073#05CC0000002D0131
(1546909044.814948) can0 2B0#82FF0007F2000000
(1546909044.819237) can0 0B9#0004000000000000
(1546909044.825132) can0 2B0#80FF0007C3000000
(1546909044.826783) can0 083#05CC000000013108
(1546909044.828713) can0 093#05CC0000000D0131
(1546909044.829717) can0 073#05CC0000002D0131
(1546909044.834855) can0 2B0#7FFF0007B4000000
(1546909044.839458) can0 0B9#0004000000000000
(1546909044.845116) can0 2B0#7FFF0007A5000000
(1546909044.846859) can0 083#05CC000000530131
(1546909044.848706) can0 093#05CC000000040401
(1546909044.849720) can0 073#05CC0000002D0131
(1546909044.857921) can0 2B0#80FF000796000000
(1546909044.859423) can0 0B9#0004000000000000
(1546909044.865001) can0 2B0#80FF000787000000
(1546909044.866863) can0 083#05CC000000530131
(1546909044.868709) can0 093#05CC0000000D0131
(1546909044.869585) can0 073#05CC0000002D0131
(1546909044.874983) can0 2B0#80FF000778000000
(1546909044.879588) can0 0B9#0004000000000000
(1546909044.885031) can0 2B0#80FF000769000000
(1546909044.886865) can0 083#05CC0000000B1700
(1546909044.888738) can0 093#05CC0000000D0131
(1546909044.889622) can0 073#05CC0000002D0131
(1546909044.894870) can0 2B0#80FF00075A000000
(1546909044.899722) can0 0B9#0004000000000000
(1546909044.906870) can0 083#05CC000000530131
(1546909044.908393) can0 2B0#80FF00074B000000
(1546909044.909300) can0 093#05CC0000000D0131
(1546909044.909301) can0 073#05CC000000CF089F
(1546909044.915087) can0 2B0#7FFF00073C000000
(1546909044.919729) can0 0B9#0004000000000000
(1546909044.925190) can0 2B0#80FF00072D000000
(1546909044.926879) can0 083#05CC000000530131
(1546909044.928735) can0 093#05CC0000000B1300
(1546909044.929738) can0 073#05CC0000002D0131
(1546909044.935016) can0 2B0#7FFF00071E000000
(1546909044.939730) can0 0B9#0004000000000000
(1546909044.945201) can0 2B0#81FF00071F000000
(1546909044.946888) can0 083#05CC000000530131
(1546909044.948765) can0 093#05CC0000000D0131
(1546909044.949808) can0 073#05CC0000002D0131
(1546909044.957773) can0 2B0#7FFF0007F0000000
(1546909044.959936) can0 0B9#0004000000000000
(1546909044.965173) can0 2B0#81FF0007F1000000
(1546909044.966906) can0 083#05CC000000530131
(1546909044.968747) can0 093#05CC0000000D0131
(1546909044.969757) can0 073#05CC0000002D0131
(1546909044.974935) can0 2B0#80FF0007D2000000
(1546909044.980150) can0 0B9#0004000000000000
(1546909044.985175) can0 2B0#80FF0007C3000000
(1546909044.986903) can0 083#05CC000000530131
(1546909044.988738) can0 093#05CC0000000D0131
(1546909044.989763) can0 073#05CC000000A311F7
(1546909044.995137) can0 2B0#7FFF0007B4000000
(1546909045.000200) can0 0B9#0004000000000000
(1546909045.006914) can0 083#05CC000000000000
(1546909045.008059) can0 2B0#81FF0007B5000000
(1546909045.008945) can0 093#05CC0000000D0131
(1546909045.008946) can0 073#05CC0000002D0131
(1546909045.015061) can0 2B0#80FF000796000000
(1546909045.020462) can0 0B9#0004000000000000
(1546909045.025002) can0 2B0#7FFF000787000000
(1546909045.026901) can0 083#05CC000000530131
(1546909045.028777) can0 093#05CC0000000D0131
(1546909045.029781) can0 073#05CC0000002D0131
(1546909045.035035) can0 2B0#80FF000778000000
(1546909045.040627) can0 0B9#0004000000000000
(1546909045.044934) can0 2B0#80FF000769000000
(1546909045.046915) can0 083#05CC000000530131
(1546909045.048641) can0 093#05CC0000000D0131
(1546909045.049784) can0 073#05CC0000002D0131
(1546909045.058035) can0 2B0#7FFF00075A000000
(1546909045.060752) can0 0B9#0004000000000000
(1546909045.065105) can0 2B0#80FF00074B000000
(1546909045.066921) can0 083#05CC000000040401
(1546909045.068773) can0 093#05CC000000000000
(1546909045.069771) can0 073#05CC0000002D0131
(1546909045.075153) can0 2B0#80FF00073C000000
(1546909045.080930) can0 0B9#0004000000000000
(1546909045.085072) can0 2B0#81FF00073D000000
(1546909045.086951) can0 083#05CC000000530131
(1546909045.088807) can0 093#05CC0000000D0131
(1546909045.089813) can0 073#05CC000000089F0A
(1546909045.094958) can0 2B0#80FF00071E000000
(1546909045.100975) can0 0B9#0004000000000000
(1546909045.106940) can0 083#05CC000000530131
(1546909045.108441) can0 2B0#80FF00070F000000
(1546909045.109361) can0 093#05CC0000000D0131
(1546909045.109362) can0 073#05CC0000002D0131
(1546909045.115193) can0 2B0#80FF0007F0000000
(1546909045.121086) can0 0B9#0004000000000000
(1546909045.125214) can0 2B0#80FF0007E1000000
(1546909045.126926) can0 083#05CC000000000000
(1546909045.128774) can0 093#05CC0000000D0131
(1546909045.129798) can0 073#05CC000000013108
(1546909045.135112) can0 2B0#80FF0007D2000000
(1546909045.141246) can0 0B9#0004000000000000
(1546909045.145155) can0 2B0#82FF0007E3000000
(1546909045.146944) can0 083#05CC000000530131
(1546909045.148785) can0 093#05CC0000000D0131
(1546909045.149677) can0 073#05CC0000002D0131
(1546909045.157903) can0 2B0#81FF0007A4000000
(1546909045.161351) can0 0B9#0004000000000000
(1546909045.164983) can0 2B0#80FF0007A5000000
(1546909045.166962) can0 083#05CC000000530131
(1546909045.168812) can0 093#05CC0000000D0131
(1546909045.169816) can0 073#05CC0000002D0131
(1546909045.175186) can0 2B0#83FF0007A6000000
(1546909045.181510) can0 0B9#0004000000000000
(1546909045.185195) can0 2B0#80FF000787000000
(1546909045.186934) can0 083#05CC00000088AA89
(1546909045.188820) can0 093#05CC0000000D0131
(1546909045.189824) can0 073#05CC0000002D0131
(1546909045.195249) can0 2B0#80FF000778000000
(1546909045.201553) can0 0B9#0004000000000000
(1546909045.206976) can0 083#05CC000000530131
(1546909045.208332) can0 2B0#80FF000769000000
(1546909045.209236) can0 093#05CC0000000D0131
(1546909045.209237) can0 073#05CC000000CF089F
(1546909045.215256) can0 2B0#81FF00074A000000
(1546909045.221568) can0 0B9#0004000000000000
(1546909045.225125) can0 2B0#80FF00074B000000
(1546909045.226975) can0 083#05CC000000530131
(1546909045.228776) can0 093#05CC0000000D0131
(1546909045.229761) can0 073#05CC0000002D0131
(1546909045.235156) can0 2B0#7FFF00073C000000
(1546909045.241870) can0 0B9#0004000000000000
(1546909045.245135) can0 2B0#81FF00073D000000
(1546909045.246979) can0 083#05CC000000530131
(1546909045.248823) can0 093#05CC0000000D0131
(1546909045.249852) can0 073#05CC0000002D0131
(1546909045.258002) can0 2B0#81FF00070E000000
(1546909045.262023) can0 0B9#0004000000000000
(1546909045.265019) can0 2B0#7FFF00070F000000
(1546909045.266928) can0 083#05CC000000530131
(1546909045.268817) can0 093#05CC0000000D0131
(1546909045.269818) can0 073#05CC000000F7CF08
(1546909045.275241) can0 2B0#82FF0007D0000000
(1546909045.282177) can0 0B9#0004000000000000
(1546909045.285426) can0 2B0#7FFF0007E1000000
(1546909045.286976) can0 083#05CC000000000000
(1546909045.288827) can0 093#05CC000000130000
(1546909045.289844) can0 073#05CC0000002D0131
(1546909045.295218) can0 2B0#7FFF0007D2000000
(1546909045.302317) can0 0B9#0004000000000000
(1546909045.306860) can0 083#05CC000000530131
(1546909045.308257) can0 2B0#7FFF0007C3000000
(1546909045.309249) can0 093#05CC0000000D0131
(1546909045.309249) can0 073#05CC0000002D0131
(1546909045.315235) can0 2B0#80FF0007B4000000
(1546909045.322329) can0 0B9#0004000000000000
(1546909045.325107) can0 2B0#80FF0007A5000000
(1546909045.326921) can0 083#05CC000000530131
(1546909045.328793) can0 093#05CC0000000D0131
(1546909045.329828) can0 073#05CC0000002D0131
(1546909045.335304) can0 2B0#82FF0007B6000000
(1546909045.342318) can0 0B9#0004000000000000
(1546909045.345259) can0 2B0#80FF000787000000
(1546909045.346939) can0 083#05CC000000530131
(1546909045.348826) can0 093#05CC000000130000
(1546909045.349856) can0 073#05CC00000011F7CF
(1546909045.358083) can0 2B0#81FF000768000000
(1546909045.362529) can0 0B9#0004000000000000
(1546909045.365101) can0 2B0#82FF000749000000
(1546909045.366950) can0 083#05CC000000530131
(1546909045.368740) can0 093#05CC0000000D0131
(1546909045.369727) can0 073#05CC0000002D0131
(1546909045.375102) can0 2B0#80FF00075A000000
(1546909045.382625) can0 0B9#0004000000000000
(1546909045.385007) can0 2B0#80FF00074B000000
(1546909045.386916) can0 083#05CC000000530131
(1546909045.388763) can0 093#05CC0000000D0131
(1546909045.389777) can0 073#05CC0000002D0131
(1546909045.395210) can0 2B0#81FF00072C000000
(1546909045.402741) can0 0B9#0004000000000000
(1546909045.406924) can0 083#05CC000000AA8908
(1546909045.408134) can0 2B0#80FF00072D000000
(1546909045.409054) can0 093#05CC0000000D0131
(1546909045.409055) can0 073#05CC0000002D0131
(1546909045.415178) can0 2B0#81FF00070E000000
(1546909045.422976) can0 0B9#0004000000000000
(1546909045.425151) can0 2B0#80FF00070F000000
(1546909045.426936) can0 083#05CC000000000000
(1546909045.428749) can0 093#05CC000000040401
(1546909045.429749) can0 073#05CC0000002D0131
(1546909045.435175) can0 2B0#80FF0007F0000000
(1546909045.443139) can0 0B9#0004000000000000
(1546909045.445085) can0 2B0#80FF0007E1000000
(1546909045.446956) can0 083#05CC000000530131
(1546909045.448773) can0 093#05CC0000000D0131
(1546909045.449787) can0 073#05CC0000002D0131
(1546909045.458018) can0 2B0#80FF0007D2000000
(1546909045.463288) can0 0B9#0004000000000000
(1546909045.465223) can0 2B0#81FF0007D3000000
(1546909045.466936) can0 083#05CC000000530131
(1546909045.468745) can0 093#05CC0000000D0131
(1546909045.469765) can0 073#05CC0000002D0131
(1546909045.475249) can0 2B0#81FF0007A4000000
(1546909045.483401) can0 0B9#0004000000000000
(1546909045.485128) can0 2B0#80FF0007A5000000
(1546909045.486963) can0 083#05CC000000000000
(1546909045.488757) can0 093#05CC0000000D0131
(1546909045.489787) can0 073#05CC000000CF089F
(1546909045.495069) can0 2B0#80FF000796000000
(1546909045.503487) can0 0B9#0004000000000000
(1546909045.506933) can0 083#05CC000000530131
(1546909045.508408) can0 2B0#80FF000787000000
(1546909045.509468) can0 093#05CC000000EFFF60
(1546909045.509468) can0 073#05CC0000002D0131
(1546909045.515290) can0 2B0#81FF000768000000
(1546909045.523667) can0 0B9#0004000000000000
(1546909045.525176) can0 2B0#80FF000769000000
(1546909045.526978) can0 083#05CC000000530131
(1546909045.528737) can0 093#05CC0000000D0131
(1546909045.529807) can0 073#05CC0000002D0131
(1546909045.535233) can0 2B0#80FF00075A000000
(1546909045.543850) can0 0B9#0004000000000000
(1546909045.545163) can0 2B0#7FFF00074B000000
(1546909045.546965) can0 083#05CC0000000288AA
(1546909045.548807) can0 093#05CC0000000D0131
(1546909045.549839) can0 073#05CC0000002D0131
(1546909045.558249) can0 2B0#80FF00073C000000
(1546909045.564025) can0 0B9#0004000000000000
(1546909045.565371) can0 2B0#80FF00072D000000
(1546909045.567031) can0 083#05CC000000530131
(1546909045.568877) can0 093#05CC0000009F0AE0
(1546909045.569897) can0 073#05CC0000002D0131
(1546909045.575363) can0 2B0#80FF00071E000000
(1546909045.584114) can0 0B9#0004000000000000
(1546909045.585425) can0 2B0#80FF00070F000000
(1546909045.587034) can0 083#05CC000000530131
(1546909045.588881) can0 093#05CC0000000D0131
(1546909045.589883) can0 073#05CC0000002D0131
(1546909045.595249) can0 2B0#80FF0007F0000000
(1546909045.604195) can0 0B9#0004000000000000
(1546909045.606994) can0 083#05CC000000089F0A
(1546909045.608277) can0 2B0#80FF0007E1000000
(1546909045.609268) can0 093#05CC0000000D0131
(1546909045.609269) can0 073#05CC0000002D0131
(1546909045.615165) can0 2B0#7FFF0007D2000000
(1546909045.624203) can0 0B9#0004000000000000
(1546909045.625233) can0 2B0#7FFF0007C3000000
(1546909045.627016) can0 083#05CC000000530131
(1546909045.628785) can0 093#05CC0000000D0131
(1546909045.629807) can0 073#05CC0000002D0131
(1546909045.635257) can0 2B0#80FF0007B4000000
(1546909045.644298) can0 0B9#0004000000000000
(1546909045.645317) can0 2B0#80FF0007A5000000
(1546909045.646984) can0 083#05CC000000530131
(1546909045.648801) can0 093#05CC0000000D0131
(1546909045.649798) can0 073#05CC0000002D0131
(1546909045.657993) can0 2B0#80FF000796000000
(1546909045.664237) can0 0B9#0004000000000000
(1546909045.665251) can0 2B0#7FFF000787000000
(1546909045.666875) can0 083#05CC0000000B1700
(1546909045.668752) can0 093#05CC0000000D0131
(1546909045.669748) can0 073#05CC000000040401
(1546909045.675161) can0 2B0#7FFF000778000000
(1546909045.684434) can0 0B9#0004000000000000
(1546909045.685454) can0 2B0#7FFF000769000000
(1546909045.687003) can0 083#05CC000000530131
(1546909045.688808) can0 093#05CC0000000D0131
(1546909045.689835) can0 073#05CC0000002D0131
(1546909045.695193) can0 2B0#81FF00074A000000
(1546909045.704489) can0 0B9#0004000000000000
(1546909045.706988) can0 083#05CC000000530131
(1546909045.708526) can0 2B0#81FF00075B000000
(1546909045.709570) can0 093#05CC000000FF6022
(1546909045.709571) can0 073#05CC000000040401
(1546909045.715292) can0 2B0#7FFF00073C000000
(1546909045.724544) can0 0B9#0004000000000000
(1546909045.725528) can0 2B0#80FF00072D000000
(1546909045.727001) can0 083#05CC000000DC0B17
(1546909045.728856) can0 093#05CC0000000D0131
(1546909045.729853) can0 073#05CC0000002D0131
(1546909045.735249) can0 2B0#7FFF00071E000000
(1546909045.744778) can0 0B9#0004000000000000
(1546909045.745780) can0 2B0#80FF00070F000000
(1546909045.747035) can0 083#05CC000000530131
(1546909045.748819) can0 093#05CC0000000D0131
(1546909045.749862) can0 073#05CC0000002D0131
(1546909045.758077) can0 2B0#80FF0007F0000000
(1546909045.764935) can0 0B9#0004000000000000
(1546909045.765912) can0 2B0#7FFF0007E1000000
(1546909045.766992) can0 083#05CC000000530131
(1546909045.768806) can0 093#05CC0000000D0131
(1546909045.769850) can0 073#05CC0000002D0131
(1546909045.775290) can0 2B0#80FF0007D2000000
(1546909045.785087) can0 0B9#0004000000000000
(1546909045.786131) can0 2B0#80FF0007C3000000
(1546909045.787107) can0 083#05CC000000000000
(1546909045.788836) can0 093#05CC000000602208
(1546909045.789836) can0 073#05CC0000009F0AE0
(1546909045.795298) can0 2B0#81FF0007A4000000
(1546909045.805218) can0 0B9#0004000000000000
(1546909045.807010) can0 083#05CC000000530131
(1546909045.808412) can0 2B0#81FF0007B5000000
(1546909045.809376) can0 093#05CC0000000D0131
(1546909045.809376) can0 073#05CC0000002D0131
(1546909045.815395) can0 2B0#81FF000786000000
(1546909045.825226) can0 2B0#7FFF000787000000
(1546909045.826209) can0 0B9#0004000000000000
(1546909045.827247) can0 083#05CC000000530131
(1546909045.828857) can0 093#05CC0000000D0131
(1546909045.829852) can0 073#05CC0000002D0131
(1546909045.835397) can0 2B0#80FF000778000000
(1546909045.845399) can0 2B0#7FFF000769000000
(1546909045.846400) can0 0B9#0004000000000000
(1546909045.847397) can0 083#05CC000000040401
(1546909045.848860) can0 093#05CC0000000D0131
(1546909045.849883) can0 073#05CC0000002D0131
(1546909045.858228) can0 2B0#80FF00075A000000
(1546909045.865393) can0 2B0#80FF00074B000000
(1546909045.866390) can0 0B9#0004000000000000
(1546909045.867388) can0 083#05CC000000530131
(1546909045.868853) can0 093#05CC0000000D0131
(1546909045.869868) can0 073#05CC00000011F7CF
(1546909045.875359) can0 2B0#80FF00073C000000
(1546909045.885417) can0 2B0#81FF00073D000000
(1546909045.886417) can0 0B9#0004000000000000
(1546909045.887418) can0 083#05CC000000530131
(1546909045.888857) can0 093#05CC0000000D0131
(1546909045.889894) can0 073#05CC0000002D0131
(1546909045.895404) can0 2B0#80FF00071E000000
(1546909045.906471) can0 0B9#0004000000000000
(1546909045.907447) can0 083#05CC000000000000
(1546909045.908476) can0 2B0#80FF00070F000000
(1546909045.909469) can0 093#05CC0000000D0131
(1546909045.909470) can0 073#05CC0000002D0131
(1546909045.915330) can0 2B0#80FF0007F0000000
(1546909045.925416) can0 2B0#80FF0007E1000000
(1546909045.926480) can0 0B9#0004000000000000
(1546909045.927525) can0 083#05CC000000530131
(1546909045.928858) can0 093#05CC0000009F0AE0
(1546909045.929878) can0 073#05CC0000002D0131
(1546909045.935313) can0 2B0#80FF0007D2000000
(1546909045.945383) can0 2B0#80FF0007C3000000
(1546909045.946738) can0 0B9#0004000000000000
(1546909045.947739) can0 083#05CC000000530131
(1546909045.948890) can0 093#05CC0000000D0131
(1546909045.949901) can0 073#05CC0000002D0131
(1546909045.958079) can0 2B0#80FF0007B4000000
(1546909045.965267) can0 2B0#81FF0007B5000000
(1546909045.966693) can0 0B9#0004000000000000
(1546909045.967692) can0 083#05CC0000000288AA
(1546909045.968817) can0 093#05CC0000000D0131
(1546909045.969836) can0 073#05CC0000002D0131
(1546909045.975226) can0 2B0#82FF0007B6000000
(1546909045.985372) can0 2B0#81FF000797000000
(1546909045.986718) can0 0B9#0004000000000000
(1546909045.987716) can0 083#05CC000000530131
(1546909045.988800) can0 093#05CC000000040401
(1546909045.989811) can0 073#05CC0000002D0131
(1546909045.995274) can0 2B0#80FF000778000000
(1546909046.006910) can0 0B9#0004000000000000
(1546909046.007908) can0 083#05CC000000530131
(1546909046.008922) can0 2B0#81FF000779000000
(1546909046.008923) can0 093#05CC0000000D0131
(1546909046.010101) can0 073#05CC0000002D0131
(1546909046.015563) can0 2B0#82FF00077A000000
(1546909046.025453) can0 2B0#80FF00074B000000
(1546909046.027171) can0 0B9#0004000000000000
(1546909046.028150) can0 083#05CC000000530131
(1546909046.029152) can0 093#05CC0000000D0131
(1546909046.030174) can0 073#05CC0000002D0131
(1546909046.035446) can0 2B0#7FFF00073C000000
(1546909046.045363) can0 2B0#80FF00072D000000
(1546909046.047160) can0 083#05CC000000530131
(1546909046.048182) can0 0B9#0004000000000000
(1546909046.049176) can0 093#05CC0000000D0131
(1546909046.050207) can0 073#05CC0000002D0131
(1546909046.058387) can0 2B0#80FF00071E000000
(1546909046.065390) can0 2B0#81FF00071F000000
(1546909046.067075) can0 083#05CC000000170000
(1546909046.068072) can0 0B9#0004000000000000
(1546909046.069092) can0 093#05CC000000E00B13
(1546909046.070095) can0 073#05CC0000002D0131
(1546909046.075329) can0 2B0#80FF0007F0000000
(1546909046.085335) can0 2B0#80FF0007E1000000
(1546909046.087086) can0 083#05CC000000530131
(1546909046.088105) can0 0B9#0004000000000000
(1546909046.089102) can0 093#05CC0000000D0131
(1546909046.090125) can0 073#05CC0000002D0131
(1546909046.095525) can0 2B0#80FF0007D2000000
(1546909046.107095) can0 083#05CC000000530131
(1546909046.108088) can0 0B9#0004000000000000
(1546909046.109082) can0 2B0#80FF0007C3000000
(1546909046.109083) can0 093#05CC000000000000
(1546909046.110035) can0 073#05CC0000002D0131
(1546909046.115435) can0 2B0#80FF0007B4000000
(1546909046.125448) can0 2B0#80FF0007A5000000
(1546909046.127192) can0 083#05CC000000000000
(1546909046.128213) can0 0B9#0004000000000000
(1546909046.129233) can0 093#05CC0000000D0131
(1546909046.130119) can0 073#05CC000000CF089F
(1546909046.135524) can0 2B0#7FFF000796000000
(1546909046.145391) can0 2B0#7FFF000787000000
(1546909046.147159) can0 083#05CC000000530131
(1546909046.148344) can0 0B9#0004000000000000
(1546909046.149358) can0 093#05CC0000000D0131
(1546909046.149359) can0 073#05CC0000002D0131
(1546909046.158475) can0 2B0#82FF000758000000
(1546909046.165478) can0 2B0#81FF000779000000
(1546909046.167111) can0 083#05CC000000530131
(1546909046.168364) can0 0B9#0004000000000000
(1546909046.169388) can0 093#05CC0000000D0131
(1546909046.169389) can0 073#05CC00000011F7CF
(1546909046.175366) can0 2B0#80FF00075A000000
(1546909046.185375) can0 2B0#80FF00074B000000
(1546909046.187093) can0 083#05CC000000040401
(1546909046.188493) can0 0B9#0004000000000000
(1546909046.189509) can0 093#05CC0000000D0131
(1546909046.189510) can0 073#05CC0000002D0131
(1546909046.195568) can0 2B0#81FF00072C000000
(1546909046.207127) can0 083#05CC000000530131
(1546909046.208624) can0 2B0#7FFF00072D000000
(1546909046.209709) can0 093#05CC0000000D0131
(1546909046.209709) can0 073#05CC0000002D0131
(1546909046.209710) can0 0B9#0004000000000000
(1546909046.215476) can0 2B0#81FF00070E000000
(1546909046.225379) can0 2B0#7FFF00070F000000
(1546909046.227124) can0 083#05CC000000530131
(1546909046.228965) can0 093#05CC000000EFFF60
(1546909046.229912) can0 073#05CC0000002D0131
(1546909046.229913) can0 0B9#0004000000000000
(1546909046.235460) can0 2B0#81FF0007E0000000
(1546909046.245454) can0 2B0#81FF0007F1000000
(1546909046.247201) can0 083#05CC0000000B1700
(1546909046.249052) can0 093#05CC0000000D0131
(1546909046.250061) can0 073#05CC000000040401
(1546909046.251072) can0 0B9#0004000000000000
(1546909046.258522) can0 2B0#80FF0007D2000000
(1546909046.265601) can0 2B0#82FF0007E3000000
(1546909046.267189) can0 083#05CC000000530131
(1546909046.269041) can0 093#05CC0000000D0131
(1546909046.270072) can0 073#05CC0000002D0131
(1546909046.271083) can0 0B9#0004000000000000
(1546909046.275609) can0 2B0#80FF0007B4000000
(1546909046.285498) can0 2B0#80FF0007A5000000
(1546909046.287155) can0 083#05CC000000530131
(1546909046.288936) can0 093#05CC0000000D0131
(1546909046.289959) can0 073#05CC000000000000
(1546909046.290979) can0 0B9#0004000000000000
(1546909046.295469) can0 2B0#81FF000786000000
(1546909046.307081) can0 083#05CC00000089089F
(1546909046.308754) can0 2B0#81FF000797000000
(1546909046.309936) can0 093#05CC000000602208
(1546909046.309937) can0 073#05CC0000002D0131
(1546909046.310953) can0 0B9#0004000000000000
(1546909046.315546) can0 2B0#80FF000778000000
(1546909046.325495) can0 2B0#80FF000769000000
(1546909046.327295) can0 083#05CC000000530131
(1546909046.328987) can0 093#05CC0000000D0131
(1546909046.330073) can0 073#05CC0000002D0131
(1546909046.330969) can0 0B9#0004000000000000
(1546909046.335706) can0 2B0#81FF00074A000000
(1546909046.345576) can0 2B0#80FF00074B000000
(1546909046.347245) can0 083#05CC000000530131
(1546909046.349053) can0 093#05CC0000000D0131
(1546909046.350059) can0 073#05CC0000002D0131
(1546909046.351072) can0 0B9#0004000000000000
(1546909046.358485) can0 2B0#7FFF00073C000000
(1546909046.365710) can0 2B0#80FF00072D000000
(1546909046.367232) can0 083#05CC000000089F0A
(1546909046.369063) can0 093#05CC0000000D0131
(1546909046.370069) can0 073#05CC0000002D0131
(1546909046.371030) can0 0B9#0004000000000000
(1546909046.375596) can0 2B0#81FF00070E000000
(1546909046.385704) can0 2B0#80FF00070F000000
(1546909046.387243) can0 083#05CC000000530131
(1546909046.389052) can0 093#05CC0000000D0131
(1546909046.389980) can0 073#05CC0000002D0131
(1546909046.391349) can0 0B9#0004000000000000
(1546909046.395729) can0 2B0#81FF0007E0000000
(1546909046.407213) can0 083#05CC000000530131
(1546909046.408812) can0 2B0#7FFF0007E1000000
(1546909046.409811) can0 093#05CC0000000D0131
(1546909046.409812) can0 073#05CC0000002D0131
(1546909046.411505) can0 0B9#0004000000000000
(1546909046.415716) can0 2B0#80FF0007D2000000
(1546909046.425693) can0 2B0#80FF0007C3000000
(1546909046.427236) can0 083#05CC000000000000
(1546909046.429002) can0 093#05CC0000000D0131
(1546909046.429998) can0 073#05CC0000002D0131
(1546909046.431738) can0 0B9#0004000000000000
(1546909046.435666) can0 2B0#81FF0007A4000000
(1546909046.445813) can0 2B0#80FF0007A5000000
(1546909046.447245) can0 083#05CC000000530131
(1546909046.449106) can0 093#05CC0000000D0131
(1546909046.450107) can0 073#05CC0000002D0131
(1546909046.451894) can0 0B9#0004000000000000
(1546909046.455836) can0 2B0#81FF000786000000
(1546909046.465681) can0 2B0#81FF000797000000
(1546909046.467274) can0 083#05CC000000530131
(1546909046.469091) can0 093#05CC0000000D0131
(1546909046.469974) can0 073#05CC000000CF089F
(1546909046.471884) can0 0B9#0004000000000000
(1546909046.475660) can0 2B0#80FF000778000000
(1546909046.485589) can0 2B0#80FF000769000000
(1546909046.487243) can0 083#05CC000000530131
(1546909046.489096) can0 093#05CC000000130000
(1546909046.489999) can0 073#05CC0000002D0131
(1546909046.492003) can0 0B9#0004000000000000
(1546909046.495646) can0 2B0#80FF00075A000000
(1546909046.507246) can0 083#05CC000000530131
(1546909046.508994) can0 093#05CC0000000D0131
(1546909046.510077) can0 073#05CC000000089F0A
(1546909046.510078) can0 2B0#80FF00074B000000
(1546909046.512341) can0 0B9#0004000000000000
(1546909046.515841) can0 2B0#80FF00073C000000
(1546909046.525660) can0 2B0#80FF00072D000000
(1546909046.527279) can0 083#05CC000000530131
(1546909046.529113) can0 093#05CC0000000D0131
(1546909046.530118) can0 073#05CC000000040401
(1546909046.532431) can0 0B9#0004000000000000
(1546909046.535771) can0 2B0#80FF00071E000000
(1546909046.545857) can0 2B0#80FF00070F000000
(1546909046.547267) can0 083#05CC000000000000
(1546909046.549123) can0 093#05CC000000E00B13
(1546909046.550129) can0 073#05CC0000002D0131
(1546909046.552684) can0 0B9#0004000000000000
(1546909046.558587) can0 2B0#80FF0007F0000000
(1546909046.565800) can0 2B0#81FF0007F1000000
(1546909046.567274) can0 083#05CC000000530131
(1546909046.569129) can0 093#05CC0000000D0131
(1546909046.570137) can0 073#05CC0000002D0131
(1546909046.572713) can0 0B9#0004000000000000
(1546909046.575642) can0 2B0#80FF0007D2000000
(1546909046.585762) can0 2B0#7FFF0007C3000000
(1546909046.587306) can0 083#05CC000000530131
(1546909046.589136) can0 093#05CC0000000D0131
(1546909046.590042) can0 073#05CC0000002D0131
(1546909046.592801) can0 0B9#0004000000000000
(1546909046.595879) can0 2B0#80FF0007B4000000
(1546909046.607201) can0 083#05CC000000040401
(1546909046.608884) can0 2B0#80FF0007A5000000
(1546909046.609857) can0 093#05CC0000000D0131
(1546909046.609858) can0 073#05CC0000002D0131
(1546909046.613007) can0 0B9#0004000000000000
(1546909046.615617) can0 2B0#80FF000796000000
(1546909046.625704) can0 2B0#81FF000797000000
(1546909046.627167) can0 083#05CC000000530131
(1546909046.629057) can0 093#05CC0000000D0131
(1546909046.630024) can0 073#05CC0000002D0131
(1546909046.633081) can0 0B9#0004000000000000
(1546909046.635684) can0 2B0#81FF000768000000
(1546909046.645868) can0 2B0#81FF000779000000
(1546909046.647304) can0 083#05CC000000530131
(1546909046.649139) can0 093#05CC0000000D0131
(1546909046.650164) can0 073#05CC0000002D0131
(1546909046.653178) can0 0B9#0004000000000000
(1546909046.658533) can0 2B0#80FF00075A000000
(1546909046.665751) can0 2B0#81FF00075B000000
(1546909046.667289) can0 083#05CC0000000B1700
(1546909046.669125) can0 093#05CC00000022089F
(1546909046.670153) can0 073#05CC0000002D0131
(1546909046.673355) can0 0B9#0004000000000000
(1546909046.675631) can0 2B0#80FF00073C000000
(1546909046.685761) can0 2B0#80FF00072D000000
(1546909046.687228) can0 083#05CC000000530131
(1546909046.689133) can0 093#05CC0000000D0131
(1546909046.690143) can0 073#05CC0000002D0131
(1546909046.693492) can0 0B9#0004000000000000
(1546909046.695648) can0 2B0#80FF00071E000000
(1546909046.707270) can0 083#05CC000000530131
(1546909046.709015) can0 093#05CC0000000D0131
(1546909046.710112) can0 073#05CC0000002D0131
(1546909046.710113) can0 2B0#80FF00070F000000
(1546909046.713626) can0 0B9#0004000000000000
(1546909046.715815) can0 2B0#7FFF0007F0000000
(1546909046.725650) can0 2B0#80FF0007E1000000
(1546909046.727249) can0 083#05CC00000089089F
(1546909046.729105) can0 093#05CC0000000D0131
(1546909046.730026) can0 073#05CC0000002D0131
(1546909046.733780) can0 0B9#0004000000000000
(1546909046.735755) can0 2B0#81FF0007C2000000
(1546909046.745697) can0 2B0#80FF0007C3000000
(1546909046.747263) can0 083#05CC000000530131
(1546909046.749084) can0 093#05CC000000B00AE0
(1546909046.750041) can0 073#05CC0000002D0131
(1546909046.753976) can0 0B9#0004000000000000
(1546909046.758542) can0 2B0#81FF0007A4000000
(1546909046.765733) can0 2B0#80FF0007A5000000
(1546909046.767334) can0 083#05CC000000530131
(1546909046.769174) can0 093#05CC0000000D0131
(1546909046.770039) can0 073#05CC0000002D0131
(1546909046.774126) can0 0B9#0004000000000000
(1546909046.775659) can0 2B0#7FFF000796000000
(1546909046.785766) can0 2B0#82FF0007A7000000
(1546909046.787300) can0 083#05CC000000530131
(1546909046.789177) can0 093#05CC0000000D0131
(1546909046.790083) can0 073#05CC000000000000
(1546909046.794469) can0 0B9#0004000000000000
(1546909046.795783) can0 2B0#81FF000768000000
(1546909046.807289) can0 083#05CC000000530131
(1546909046.808808) can0 2B0#80FF000769000000
(1546909046.809942) can0 093#05CC000000040401
(1546909046.809943) can0 073#05CC0000002D0131
(1546909046.814520) can0 0B9#0004000000000000
(1546909046.815896) can0 2B0#80FF00075A000000
(1546909046.825685) can0 2B0#80FF00074B000000
(1546909046.827349) can0 083#05CC000000530131
(1546909046.829176) can0 093#05CC0000000D0131
(1546909046.830199) can0 073#05CC0000002D0131
(1546909046.834534) can0 0B9#0004000000000000
(1546909046.835930) can0 2B0#81FF00072C000000
(1546909046.845873) can0 2B0#80FF00072D000000
(1546909046.847351) can0 083#05CC000000000000
(1546909046.849185) can0 093#05CC0000000D0131
(1546909046.850215) can0 073#05CC0000002D0131
(1546909046.854796) can0 0B9#0004000000000000
(1546909046.858714) can0 2B0#82FF00073E000000
(1546909046.865877) can0 2B0#80FF00070F000000
(1546909046.867210) can0 083#05CC000000530131
(1546909046.869191) can0 093#05CC0000000D0131
(1546909046.870195) can0 073#05CC0000002D0131
(1546909046.874798) can0 0B9#0004000000000000
(1546909046.875825) can0 2B0#80FF0007F0000000
(1546909046.885802) can0 2B0#7FFF0007E1000000
(1546909046.887314) can0 083#05CC000000530131
(1546909046.889181) can0 093#05CC000000E00B13
(1546909046.890071) can0 073#05CC0000002D0131
(1546909046.894921) can0 0B9#0004000000000000
(1546909046.895931) can0 2B0#81FF0007C2000000
(1546909046.907337) can0 083#05CC000000530131
(1546909046.909096) can0 2B0#7FFF0007C3000000
(1546909046.910108) can0 073#05CC0000002D0131
(1546909046.910109) can0 093#05CC0000000D0131
(1546909046.915135) can0 0B9#0004000000000000
(1546909046.916030) can0 2B0#81FF0007A4000000
(1546909046.925853) can0 2B0#80FF0007A5000000
(1546909046.927358) can0 083#05CC000000530131
(1546909046.929221) can0 093#05CC0000000D0131
(1546909046.930222) can0 073#05CC000000040401
(1546909046.935328) can0 0B9#0004000000000000
(1546909046.936348) can0 2B0#82FF0007B6000000
(1546909046.945960) can0 2B0#80FF000787000000
(1546909046.947375) can0 083#05CC000000530131
(1546909046.949205) can0 093#05CC0000000D0131
(1546909046.950240) can0 073#05CC0000002D0131
(1546909046.955547) can0 0B9#0004000000000000
(1546909046.958583) can0 2B0#80FF000778000000
(1546909046.965879) can0 2B0#7FFF000769000000
(1546909046.967358) can0 083#05CC000000000000
(1546909046.969215) can0 093#05CC000000EFFF60
(1546909046.970221) can0 073#05CC000000000000
(1546909046.975520) can0 0B9#0004000000000000
(1546909046.976574) can0 2B0#81FF00074A000000
(1546909046.985768) can0 2B0#82FF00076B000000
(1546909046.987366) can0 083#05CC000000530131
(1546909046.989201) can0 093#05CC0000000D0131
(1546909046.990108) can0 073#05CC0000002D0131
(1546909046.995743) can0 0B9#0004000000000000
(1546909046.996804) can0 2B0#7FFF00073C000000
(1546909047.007373) can0 083#05CC000000530131
(1546909047.009010) can0 2B0#80FF00072D000000
(1546909047.010026) can0 093#05CC0000000D0131
(1546909047.010027) can0 073#05CC000000000000
(1546909047.015922) can0 2B0#80FF00071E000000
(1546909047.016942) can0 0B9#0004000000000000
(1546909047.025894) can0 2B0#82FF00072F000000
(1546909047.027366) can0 083#05CC000000040401
(1546909047.029217) can0 093#05CC0000000D0131
(1546909047.030240) can0 073#05CC0000002D0131
(1546909047.036062) can0 2B0#80FF0007F0000000
(1546909047.037076) can0 0B9#0004000000000000
(1546909047.045919) can0 2B0#7FFF0007E1000000
(1546909047.047393) can0 083#05CC000000530131
(1546909047.049250) can0 093#05CC0000000D0131
(1546909047.050269) can0 073#05CC000000013108
(1546909047.056878) can0 0B9#0004000000000000
(1546909047.058783) can0 2B0#80FF0007D2000000
(1546909047.065991) can0 2B0#80FF0007C3000000
(1546909047.067404) can0 083#05CC000000530131
(1546909047.069233) can0 093#05CC0000000D0131
(1546909047.070189) can0 073#05CC0000002D0131
(1546909047.075877) can0 2B0#7FFF0007B4000000
(1546909047.076828) can0 0B9#0004000000000000
(1546909047.085790) can0 2B0#81FF0007B5000000
(1546909047.087385) can0 083#05CC000000530131
(1546909047.089238) can0 093#05CC0000000D0131
(1546909047.090267) can0 073#05CC0000002D0131
(1546909047.095890) can0 2B0#81FF000786000000
(1546909047.097080) can0 0B9#0004000000000000
(1546909047.107399) can0 083#05CC000000530131
(1546909047.109115) can0 093#05CC000000000000
(1546909047.110125) can0 073#05CC000000CF089F
(1546909047.110126) can0 2B0#81FF000797000000
(1546909047.115945) can0 2B0#81FF000768000000
(1546909047.117186) can0 0B9#0004000000000000
(1546909047.125944) can0 2B0#7FFF000769000000
(1546909047.127375) can0 083#05CC000000530131
(1546909047.129241) can0 093#05CC0000000D0131
(1546909047.130206) can0 073#05CC0000002D0131
(1546909047.135918) can0 2B0#81FF00074A000000
(1546909047.137378) can0 0B9#0004000000000000
(1546909047.145977) can0 2B0#80FF00074B000000
(1546909047.147396) can0 083#05CC00000089089F
(1546909047.149246) can0 093#05CC0000000D0131
(1546909047.150274) can0 073#05CC000000CF089F
(1546909047.157481) can0 0B9#0004000000000000
(1546909047.158682) can0 2B0#80FF00073C000000
(1546909047.165974) can0 2B0#80FF00072D000000
(1546909047.167399) can0 083#05CC000000530131
(1546909047.169257) can0 093#05CC0000000D0131
(1546909047.170179) can0 073#05CC0000002D0131
(1546909047.175806) can0 2B0#80FF00071E000000
(1546909047.177530) can0 0B9#0004000000000000
(1546909047.186018) can0 2B0#80FF00070F000000
(1546909047.187435) can0 083#05CC000000530131
(1546909047.189243) can0 093#05CC0000000D0131
(1546909047.190269) can0 073#05CC0000002D0131
(1546909047.196147) can0 2B0#80FF0007F0000000
(1546909047.197685) can0 0B9#0004000000000000
(1546909047.207420) can0 083#05CC000000530131
(1546909047.209031) can0 2B0#7FFF0007E1000000
(1546909047.210215) can0 093#05CC0000000D0131
(1546909047.210216) can0 073#05CC0000002D0131
(1546909047.215948) can0 2B0#7FFF0007D2000000
(1546909047.217778) can0 0B9#0004000000000000
(1546909047.225990) can0 2B0#7FFF0007C3000000
(1546909047.227387) can0 083#05CC000000530131
(1546909047.229278) can0 093#05CC0000000D0131
(1546909047.230298) can0 073#05CC0000002D0131
(1546909047.235875) can0 2B0#7FFF0007B4000000
(1546909047.237906) can0 0B9#0004000000000000
(1546909047.245937) can0 2B0#7FFF0007A5000000
(1546909047.247453) can0 083#05CC000000530131
(1546909047.249284) can0 093#05CC0000000D0131
(1546909047.250279) can0 073#05CC0000002D0131
(1546909047.258108) can0 0B9#0004000000000000
(1546909047.259011) can0 2B0#7FFF000796000000
(1546909047.266030) can0 2B0#7FFF000787000000
(1546909047.267439) can0 083#05CC000000000000
(1546909047.269293) can0 093#05CC000000EFFF60
(1546909047.270283) can0 073#05CC0000000B8A00
(1546909047.276002) can0 2B0#80FF000778000000
(1546909047.278118) can0 0B9#0004000000000000
(1546909047.286018) can0 2B0#80FF000769000000
(1546909047.287429) can0 083#05CC000000530131
(1546909047.289178) can0 093#05CC0000000D0131
(1546909047.290287) can0 073#05CC0000002D0131
(1546909047.296025) can0 2B0#80FF00075A000000
(1546909047.298210) can0 0B9#0004000000000000
(1546909047.307343) can0 083#05CC000000530131
(1546909047.309172) can0 093#05CC0000000D0131
(1546909047.310295) can0 073#05CC000000000000
(1546909047.310296) can0 2B0#80FF00074B000000
(1546909047.316003) can0 2B0#80FF00073C000000
(1546909047.318231) can0 0B9#0004000000000000
(1546909047.325949) can0 2B0#82FF00070D000000
(1546909047.327387) can0 083#05CC000000530131
(1546909047.329263) can0 093#05CC0000000D0131
(1546909047.330288) can0 073#05CC000000000000
(1546909047.336020) can0 2B0#7FFF00071E000000
(1546909047.338309) can0 0B9#0004000000000000
(1546909047.345997) can0 2B0#80FF00070F000000
(1546909047.347399) can0 083#05CC000000530131
(1546909047.349289) can0 093#05CC00000022089F
(1546909047.350295) can0 073#05CC0000002D0131
(1546909047.358399) can0 0B9#0004000000000000
(1546909047.359261) can0 2B0#80FF0007F0000000
(1546909047.366054) can0 2B0#80FF0007E1000000
(1546909047.367468) can0 083#05CC000000530131
(1546909047.369319) can0 093#05CC0000000D0131
(1546909047.370333) can0 073#05CC0000002D0131
(1546909047.375889) can0 2B0#80FF0007D2000000
(1546909047.378490) can0 0B9#0004000000000000
(1546909047.386048) can0 2B0#81FF0007D3000000
(1546909047.387469) can0 083#05CC000000013108
(1546909047.389304) can0 093#05CC0000000D0131
(1546909047.390270) can0 073#05CC0000002D0131
(1546909047.396105) can0 2B0#80FF0007B4000000
(1546909047.398664) can0 0B9#0004000000000000
(1546909047.407444) can0 083#05CC000000530131
(1546909047.409109) can0 2B0#80FF0007A5000000
(1546909047.410293) can0 093#05CC0000000D0131
(1546909047.410294) can0 073#05CC0000002D0131
(1546909047.416027) can0 2B0#82FF0007B6000000
(1546909047.418757) can0 0B9#0004000000000000
(1546909047.426038) can0 2B0#81FF000797000000
(1546909047.427429) can0 083#05CC000000530131
(1546909047.429301) can0 093#05CC0000009F0AE0
(1546909047.430322) can0 073#05CC0000002D0131
(1546909047.436113) can0 2B0#81FF000768000000
(1546909047.438657) can0 0B9#0004000000000000
(1546909047.446193) can0 2B0#80FF000769000000
(1546909047.447451) can0 083#05CC000000040401
(1546909047.449331) can0 093#05CC0000000D0131
(1546909047.450353) can0 073#05CC0000002D0131
(1546909047.458951) can0 2B0#81FF00074A000000
(1546909047.459882) can0 0B9#0004000000000000
(1546909047.466012) can0 2B0#80FF00074B000000
(1546909047.467463) can0 083#05CC000000530131
(1546909047.469339) can0 093#05CC0000000D0131
(1546909047.470354) can0 073#05CC000000E00B8A
(1546909047.476079) can0 2B0#80FF00073C000000
(1546909047.479897) can0 0B9#0004000000000000
(1546909047.486322) can0 2B0#80FF00072D000000
(1546909047.487509) can0 083#05CC000000530131
(1546909047.489329) can0 093#05CC000000040401
(1546909047.490285) can0 073#05CC0000002D0131
(1546909047.496221) can0 2B0#82FF00073E000000
(1546909047.499964) can0 0B9#0004000000000000
(1546909047.507362) can0 083#05CC000000530131
(1546909047.509232) can0 093#05CC0000000D0131
(1546909047.510211) can0 073#05CC0000002D0131
(1546909047.510212) can0 2B0#7FFF00070F000000
(1546909047.516197) can0 2B0#80FF0007F0000000
(1546909047.519993) can0 0B9#0004000000000000
(1546909047.526040) can0 2B0#80FF0007E1000000
(1546909047.527416) can0 083#05CC000000530131
(1546909047.529347) can0 093#05CC0000000D0131
(1546909047.530327) can0 073#05CC0000002D0131
(1546909047.536139) can0 2B0#81FF0007C2000000
(1546909047.540168) can0 0B9#0004000000000000
(1546909047.546290) can0 2B0#81FF0007D3000000
(1546909047.547518) can0 083#05CC000000530131
(1546909047.549221) can0 093#05CC0000000D0131
(1546909047.550354) can0 073#05CC0000002D0131
(1546909047.558765) can0 2B0#80FF0007B4000000
(1546909047.560308) can0 0B9#0004000000000000
(1546909047.566176) can0 2B0#80FF0007A5000000
(1546909047.567450) can0 083#05CC00000089089F
(1546909047.569338) can0 093#05CC000000E00B13
(1546909047.570358) can0 073#05CC0000002D0131
(1546909047.576014) can0 2B0#80FF000796000000
(1546909047.580352) can0 0B9#0004000000000000
(1546909047.586225) can0 2B0#80FF000787000000
(1546909047.587490) can0 083#05CC000000530131
(1546909047.589367) can0 093#05CC0000000D0131
(1546909047.590370) can0 073#05CC0000002D0131
(1546909047.596102) can0 2B0#82FF000758000000
(1546909047.600372) can0 0B9#0004000000000000
(1546909047.607532) can0 083#05CC000000530131
(1546909047.609194) can0 093#05CC0000000D0131
(1546909047.610378) can0 073#05CC00000011F7CF
(1546909047.610380) can0 2B0#81FF000779000000
(1546909047.616170) can0 2B0#81FF00074A000000
(1546909047.620573) can0 0B9#0004000000000000
(1546909047.626099) can0 2B0#80FF00074B000000
(1546909047.627430) can0 083#05CC000000530131
(1546909047.629361) can0 093#05CC0000000D0131
(1546909047.630309) can0 073#05CC0000002D0131
(1546909047.636178) can0 2B0#7FFF00073C000000
(1546909047.640704) can0 0B9#0004000000000000
(1546909047.646151) can0 2B0#7FFF00072D000000
(1546909047.647538) can0 083#05CC000000530131
(1546909047.649348) can0 093#05CC0000000D0131
(1546909047.650378) can0 073#05CC0000000B8A00
(1546909047.658875) can0 2B0#7FFF00071E000000
(1546909047.660919) can0 0B9#0004000000000000
(1546909047.666151) can0 2B0#80FF00070F000000
(1546909047.667515) can0 083#05CC000000530131
(1546909047.669385) can0 093#05CC0000000D0131
(1546909047.670401) can0 073#05CC0000002D0131
(1546909047.676211) can0 2B0#7FFF0007F0000000
(1546909047.681091) can0 0B9#0004000000000000
(1546909047.686274) can0 2B0#82FF0007C1000000
(1546909047.687517) can0 083#05CC000000000000
(1546909047.689388) can0 093#05CC0000000D0131
(1546909047.690393) can0 073#05CC0000002D0131
(1546909047.696352) can0 2B0#81FF0007C2000000
(1546909047.701248) can0 0B9#0004000000000000
(1546909047.707527) can0 083#05CC000000530131
(1546909047.709252) can0 093#05CC000000130000
(1546909047.710400) can0 073#05CC0000002D0131
(1546909047.710401) can0 2B0#81FF0007D3000000
(1546909047.716328) can0 2B0#82FF000794000000
(1546909047.721364) can0 0B9#0004000000000000
(1546909047.726042) can0 2B0#82FF000785000000
(1546909047.727555) can0 083#05CC000000530131
(1546909047.729340) can0 093#05CC0000000D0131
(1546909047.730272) can0 073#05CC0000002D0131
(1546909047.736267) can0 2B0#82FF0007B6000000
(1546909047.741522) can0 0B9#0004000000000000
(1546909047.746305) can0 2B0#81FF000797000000
(1546909047.747539) can0 083#05CC000000530131
(1546909047.749397) can0 093#05CC0000000D0131
(1546909047.750414) can0 073#05CC0000002D0131
(1546909047.756642) can0 2B0#81FF000768000000
(1546909047.761690) can0 0B9#0004000000000000
(1546909047.766258) can0 2B0#7FFF000769000000
(1546909047.767526) can0 083#05CC000000530131
(1546909047.769378) can0 093#05CC0000000D0131
(1546909047.770407) can0 073#05CC0000002D0131
(1546909047.776055) can0 2B0#80FF00075A000000
(1546909047.781786) can0 0B9#0004000000000000
(1546909047.786387) can0 2B0#81FF00075B000000
(1546909047.787556) can0 083#05CC000000530131
(1546909047.789388) can0 093#05CC0000000D0131
(1546909047.790414) can0 073#05CC0000002D0131
(1546909047.796203) can0 2B0#82FF00071C000000
(1546909047.801958) can0 0B9#0004000000000000
(1546909047.807539) can0 083#05CC000000530131
(1546909047.809201) can0 2B0#80FF00072D000000
(1546909047.810335) can0 093#05CC0000000D0131
(1546909047.810336) can0 073#05CC0000002D0131
(1546909047.816341) can0 2B0#81FF00070E000000
(1546909047.822115) can0 0B9#0004000000000000
(1546909047.826210) can0 2B0#82FF00072F000000
(1546909047.827551) can0 083#05CC000000530131
(1546909047.829408) can0 093#05CC0000000D0131
(1546909047.830342) can0 073#05CC0000002D0131
(1546909047.836311) can0 2B0#80FF0007F0000000
(1546909047.842214) can0 0B9#0004000000000000
(1546909047.846231) can0 2B0#80FF0007E1000000
(1546909047.847503) can0 083#05CC000000530131
(1546909047.849413) can0 093#05CC0000000AE00B
(1546909047.850417) can0 073#05CC0000002D0131
(1546909047.856647) can0 2B0#81FF0007C2000000
(1546909047.862422) can0 0B9#0004000000000000
(1546909047.866366) can0 2B0#80FF0007C3000000
(1546909047.867571) can0 083#05CC000000040401
(1546909047.869445) can0 093#05CC0000000D0131
(1546909047.870445) can0 073#05CC000000CF089F
(1546909047.876266) can0 2B0#7FFF0007B4000000
(1546909047.882635) can0 0B9#0004000000000000
(1546909047.886323) can0 2B0#81FF0007B5000000
(1546909047.887554) can0 083#05CC000000530131
(1546909047.889428) can0 093#05CC0000000D0131
(1546909047.890454) can0 073#05CC000000A311F7
(1546909047.896379) can0 2B0#7FFF000796000000
(1546909047.902858) can0 0B9#0004000000000000
(1546909047.907582) can0 083#05CC000000530131
(1546909047.909294) can0 093#05CC0000000D0131
(1546909047.910440) can0 073#05CC0000002D0131
(1546909047.910441) can0 2B0#80FF000787000000
(1546909047.916161) can0 2B0#7FFF000778000000
(1546909047.922971) can0 0B9#0004000000000000
(1546909047.926354) can0 2B0#81FF000779000000
(1546909047.927572) can0 083#05CC000000530131
(1546909047.929424) can0 093#05CC000000040401
(1546909047.930432) can0 073#05CC0000002D0131
(1546909047.936244) can0 2B0#7FFF00075A000000
(1546909047.943184) can0 0B9#0004000000000000
(1546909047.946372) can0 2B0#81FF00075B000000
(1546909047.947503) can0 083#05CC000000530131
(1546909047.949380) can0 093#05CC0000000D0131
(1546909047.950385) can0 073#05CC0000002D0131
(1546909047.956665) can0 2B0#80FF00073C000000
(1546909047.963385) can0 0B9#0004000000000000
(1546909047.966426) can0 2B0#80FF00072D000000
(1546909047.967587) can0 083#05CC000000530131
(1546909047.969446) can0 093#05CC0000000D0131
(1546909047.970470) can0 073#05CC000000000000
(1546909047.976248) can0 2B0#7FFF00071E000000
(1546909047.983493) can0 0B9#0004000000000000
(1546909047.986271) can0 2B0#80FF00070F000000
(1546909047.987531) can0 083#05CC00000089089F
(1546909047.989315) can0 093#05CC0000000AE00B
(1546909047.990451) can0 073#05CC0000002D0131
(1546909047.996353) can0 2B0#80FF0007F0000000
(1546909048.003671) can0 0B9#0004000000000000
(1546909048.007606) can0 083#05CC000000530131
(1546909048.009280) can0 093#05CC0000000D0131
(1546909048.010461) can0 073#05CC0000002D0131
(1546909048.010462) can0 2B0#81FF0007F1000000
(1546909048.016489) can0 2B0#81FF0007C2000000
(1546909048.023758) can0 0B9#0004000000000000
(1546909048.026308) can0 2B0#7FFF0007C3000000
(1546909048.027616) can0 083#05CC000000530131
(1546909048.029473) can0 093#05CC0000000D0131
(1546909048.030494) can0 073#05CC0000002D0131
(1546909048.036372) can0 2B0#81FF0007A4000000
(1546909048.043936) can0 0B9#0004000000000000
(1546909048.046335) can0 2B0#7FFF0007A5000000
(1546909048.047602) can0 083#05CC000000530131
(1546909048.049456) can0 093#05CC0000000D0131
(1546909048.050477) can0 073#05CC0000002D0131
(1546909048.056562) can0 2B0#81FF000786000000
(1546909048.064123) can0 0B9#0004000000000000
(1546909048.066509) can0 2B0#82FF0007A7000000
(1546909048.067591) can0 083#05CC000000013108
(1546909048.069443) can0 093#05CC00000022089F
(1546909048.070339) can0 073#05CC0000002D0131
(1546909048.076376) can0 2B0#80FF000778000000
(1546909048.084202) can0 0B9#0004000000000000
(1546909048.086436) can0 2B0#7FFF000769000000
(1546909048.087619) can0 083#05CC000000530131
(1546909048.089493) can0 093#05CC0000000D0131
(1546909048.090521) can0 073#05CC0000002D0131
(1546909048.096461) can0 2B0#81FF00074A000000
(1546909048.104478) can0 0B9#0004000000000000
(1546909048.107615) can0 083#05CC000000530131
(1546909048.109373) can0 093#05CC0000000D0131
(1546909048.110390) can0 073#05CC0000009F0AE0
(1546909048.110391) can0 2B0#81FF00075B000000
(1546909048.116491) can0 2B0#80FF00073C000000
(1546909048.124465) can0 0B9#0004000000000000
(1546909048.126314) can0 2B0#80FF00072D000000
(1546909048.127618) can0 083#05CC000000530131
(1546909048.129468) can0 093#05CC000000602208
(1546909048.130471) can0 073#05CC0000002D0131
(1546909048.136389) can0 2B0#7FFF00071E000000
(1546909048.144580) can0 0B9#0004000000000000
(1546909048.146542) can0 2B0#81FF00071F000000
(1546909048.147649) can0 083#05CC000000530131
(1546909048.149418) can0 093#05CC0000000D0131
(1546909048.150479) can0 073#05CC0000002D0131
(1546909048.156797) can0 2B0#81FF0007E0000000
(1546909048.164736) can0 0B9#0004000000000000
(1546909048.166517) can0 2B0#7FFF0007E1000000
(1546909048.167623) can0 083#05CC000000530131
(1546909048.169429) can0 093#05CC0000000D0131
(1546909048.170510) can0 073#05CC0000002D0131
(1546909048.176352) can0 2B0#80FF0007D2000000
(1546909048.184913) can0 0B9#0004000000000000
(1546909048.186437) can0 2B0#80FF0007C3000000
(1546909048.187618) can0 083#05CC000000530131
(1546909048.189493) can0 093#05CC0000000D0131
(1546909048.190500) can0 073#05CC0000002D0131
(1546909048.196419) can0 2B0#7FFF0007B4000000
(1546909048.205046) can0 0B9#0004000000000000
(1546909048.207648) can0 083#05CC000000530131
(1546909048.209318) can0 093#05CC000000FF6022
(1546909048.210500) can0 073#05CC0000002D0131
(1546909048.210501) can0 2B0#7FFF0007A5000000
(1546909048.216528) can0 2B0#81FF000786000000
(1546909048.225097) can0 0B9#0004000000000000
(1546909048.226447) can0 2B0#82FF0007A7000000
(1546909048.227633) can0 083#05CC000000530131
(1546909048.229552) can0 093#05CC0000000D0131
(1546909048.230575) can0 073#05CC0000002D0131
(1546909048.236371) can0 2B0#7FFF000778000000
(1546909048.245270) can0 0B9#0004000000000000
(1546909048.246578) can0 2B0#80FF000769000000
(1546909048.247640) can0 083#05CC000000530131
(1546909048.249412) can0 093#05CC0000000D0131
(1546909048.250538) can0 073#05CC0000002D0131
(1546909048.256585) can0 2B0#80FF00075A000000
(1546909048.265449) can0 0B9#0004000000000000
(1546909048.266527) can0 2B0#80FF00074B000000
(1546909048.267644) can0 083#05CC000000530131
(1546909048.269501) can0 093#05CC0000000D0131
(1546909048.270503) can0 073#05CC0000008A0000
(1546909048.276311) can0 2B0#80FF00073C000000
(1546909048.285629) can0 0B9#0004000000000000
(1546909048.286638) can0 2B0#80FF00072D000000
(1546909048.287662) can0 083#05CC000000040401
(1546909048.289505) can0 093#05CC0000000D0131
(1546909048.290513) can0 073#05CC0000002D0131
(1546909048.296615) can0 2B0#80FF00071E000000
(1546909048.305790) can0 0B9#0004000000000000
(1546909048.307533) can0 083#05CC000000530131
(1546909048.309506) can0 093#05CC0000000D0131
(1546909048.310546) can0 073#05CC0000002D0131
(1546909048.310547) can0 2B0#80FF00070F000000
(1546909048.316478) can0 2B0#80FF0007F0000000
(1546909048.325803) can0 0B9#0004000000000000
(1546909048.326802) can0 2B0#80FF0007E1000000
(1546909048.327942) can0 083#05CC000000530131
(1546909048.329504) can0 093#05CC0000000D0131
(1546909048.330540) can0 073#05CC0000002D0131
(1546909048.336428) can0 2B0#80FF0007D2000000
(1546909048.346185) can0 0B9#0004000000000000
(1546909048.346941) can0 2B0#80FF0007C3000000
(1546909048.348172) can0 083#05CC000000530131
(1546909048.349594) can0 093#05CC00000022089F
(1546909048.350612) can0 073#05CC0000002D0131
(1546909048.356913) can0 2B0#80FF0007B4000000
(1546909048.366208) can0 0B9#0004000000000000
(1546909048.367268) can0 2B0#80FF0007A5000000
(1546909048.368286) can0 083#05CC000000040401
(1546909048.369546) can0 093#05CC0000000D0131
(1546909048.370524) can0 073#05CC0000002D0131
(1546909048.376545) can0 2B0#80FF000796000000
(1546909048.386396) can0 0B9#0004000000000000
(1546909048.387425) can0 2B0#7FFF000787000000
(1546909048.388425) can0 083#05CC000000530131
(1546909048.389403) can0 093#05CC0000000D0131
(1546909048.390424) can0 073#05CC0000002D0131
(1546909048.396447) can0 2B0#7FFF000778000000
(1546909048.406545) can0 0B9#0004000000000000
(1546909048.407682) can0 083#05CC000000530131
(1546909048.409397) can0 2B0#80FF000769000000
(1546909048.410518) can0 073#05CC000000CF089F
(1546909048.410519) can0 093#05CC0000000D0131
(1546909048.416690) can0 2B0#80FF00075A000000
(1546909048.426522) can0 2B0#80FF00074B000000
(1546909048.427650) can0 0B9#0004000000000000
(1546909048.428677) can0 083#05CC000000530131
(1546909048.429693) can0 093#05CC0000000D0131
(1546909048.430699) can0 073#05CC0000002D0131
(1546909048.436535) can0 2B0#80FF00073C000000
(1546909048.446600) can0 2B0#80FF00072D000000
(1546909048.447603) can0 0B9#0004000000000000
(1546909048.448613) can0 083#05CC000000530131
(1546909048.449491) can0 093#05CC0000000D0131
(1546909048.450518) can0 073#05CC0000002D0131
(1546909048.456563) can0 2B0#81FF00070E000000
(1546909048.466499) can0 2B0#80FF00070F000000
(1546909048.467546) can0 0B9#0004000000000000
(1546909048.468667) can0 083#05CC000000530131
(1546909048.469564) can0 093#05CC00000022089F
(1546909048.470559) can0 073#05CC0000002D0131
(1546909048.476592) can0 2B0#80FF0007F0000000
(1546909048.486567) can0 2B0#80FF0007E1000000
(1546909048.487671) can0 0B9#0004000000000000
(1546909048.488675) can0 083#05CC000000530131
(1546909048.489694) can0 093#05CC0000000D0131
(1546909048.490698) can0 073#05CC0000002D0131
(1546909048.496642) can0 2B0#80FF0007D2000000
(1546909048.507704) can0 083#05CC000000530131
(1546909048.508610) can0 0B9#0004000000000000
(1546909048.509744) can0 093#05CC0000000D0131
(1546909048.510704) can0 073#05CC0000002D0131
(1546909048.510705) can0 2B0#80FF0007C3000000
(1546909048.516394) can0 2B0#7FFF0007B4000000
(1546909048.526576) can0 2B0#81FF0007B5000000
(1546909048.527711) can0 083#05CC000000530131
(1546909048.528712) can0 0B9#0004000000000000
(1546909048.529732) can0 093#05CC0000000D0131
(1546909048.530608) can0 073#05CC0000002D0131
(1546909048.536402) can0 2B0#81FF000786000000
(1546909048.546663) can0 2B0#80FF000787000000
(1546909048.547703) can0 083#05CC0000000B1700
(1546909048.548721) can0 0B9#0004000000000000
(1546909048.549602) can0 093#05CC0000000D0131
(1546909048.550606) can0 073#05CC0000002D0131
(1546909048.556728) can0 2B0#80FF000778000000
(1546909048.566567) can0 2B0#81FF000779000000
(1546909048.567728) can0 083#05CC000000530131
(1546909048.568752) can0 0B9#0004000000000000
(1546909048.569630) can0 093#05CC0000000D0131
(1546909048.570645) can0 073#05CC000000A311F7
(1546909048.576442) can0 2B0#80FF00075A000000
(1546909048.586537) can0 2B0#80FF00074B000000
(1546909048.587719) can0 083#05CC000000530131
(1546909048.588735) can0 0B9#0004000000000000
(1546909048.589613) can0 093#05CC0000000D0131
(1546909048.590614) can0 073#05CC0000002D0131
(1546909048.596593) can0 2B0#80FF00073C000000
(1546909048.607606) can0 083#05CC000000000000
(1546909048.608724) can0 0B9#0004000000000000
(1546909048.609588) can0 093#05CC000000040401
(1546909048.610707) can0 073#05CC000000000000
(1546909048.610708) can0 2B0#81FF00073D000000
(1546909048.616609) can0 2B0#81FF00070E000000
(1546909048.626732) can0 2B0#81FF00071F000000
(1546909048.627752) can0 083#05CC000000530131
(1546909048.628898) can0 0B9#0004000000000000
(1546909048.629878) can0 093#05CC0000000D0131
(1546909048.629879) can0 073#05CC0000002D0131
(1546909048.636651) can0 2B0#80FF0007F0000000
(1546909048.646582) can0 2B0#81FF0007F1000000
(1546909048.647719) can0 083#05CC000000530131
(1546909048.649075) can0 0B9#0004000000000000
(1546909048.649989) can0 093#05CC0000000D0131
(1546909048.649990) can0 073#05CC0000002D0131
(1546909048.657040) can0 2B0#80FF0007D2000000
(1546909048.666563) can0 2B0#82FF0007E3000000
(1546909048.667749) can0 083#05CC000000040401
(1546909048.669284) can0 0B9#0004000000000000
(1546909048.670196) can0 093#05CC0000000D0131
(1546909048.670197) can0 073#05CC0000002D0131
(1546909048.676588) can0 2B0#80FF0007B4000000
(1546909048.686582) can0 2B0#80FF0007A5000000
(1546909048.687757) can0 083#05CC000000530131
(1546909048.689469) can0 0B9#0004000000000000
(1546909048.690449) can0 093#05CC000000E00B13
(1546909048.690450) can0 073#05CC0000002D0131
(1546909048.696764) can0 2B0#80FF000796000000
(1546909048.707752) can0 083#05CC000000530131
(1546909048.709423) can0 0B9#0004000000000000
(1546909048.710599) can0 073#05CC0000002D0131
(1546909048.710600) can0 093#05CC000000089F0A
(1546909048.710601) can0 2B0#81FF000797000000
(1546909048.716545) can0 2B0#80FF000778000000
(1546909048.726649) can0 2B0#80FF000769000000
(1546909048.727734) can0 083#05CC000000170000
(1546909048.729607) can0 093#05CC000000013108
(1546909048.730613) can0 073#05CC0000002D0131
(1546909048.730615) can0 0B9#0004000000000000
(1546909048.736634) can0 2B0#80FF00075A000000
(1546909048.746734) can0 2B0#80FF00074B000000
(1546909048.747748) can0 083#05CC000000530131
(1546909048.749572) can0 093#05CC0000000D0131
(1546909048.750515) can0 073#05CC0000002D0131
(1546909048.750518) can0 0B9#0004000000000000
(1546909048.756771) can0 2B0#80FF00073C000000
(1546909048.766632) can0 2B0#82FF00070D000000
(1546909048.767770) can0 083#05CC000000530131
(1546909048.769550) can0 093#05CC0000000D0131
(1546909048.770646) can0 073#05CC0000002D0131
(1546909048.770647) can0 0B9#0004000000000000
(1546909048.776754) can0 2B0#7FFF00071E000000
(1546909048.786739) can0 2B0#80FF00070F000000
(1546909048.787739) can0 083#05CC00000088AA89
